  can0  2B0   [8]  6B FF 00 07 7D 00 00 00
  can0  220   [8]  FE A3 82 00 00 19 10 35
  can0  093   [8]  05 CC 00 00 00 25 2F 82
  can0  073   [8]  05 CC 00 00 00 2C 01 31
  can0  083   [8]  05 CC 00 00 00 00 00 00
  can0  0D8   [8]  00 00 00 00 00 00 00 00
  can0  0B9   [8]  00 04 00 00 00 00 00 00
  can0  220   [8]  FF A3 82 00 00 18 10 45
  can0  2B0   [8]  6B FF 00 07 4E 00 00 00
  can0  386   [8]  00 80 00 00 00 40 00 80
  can0  2B0   [8]  6C FF 00 07 2F 00 00 00
  can0  220   [8]  FE 83 82 00 00 1A 10 54
  can0  093   [8]  05 CC 00 00 00 11 01 31
  can0  073   [8]  05 CC 00 00 00 00 00 00
  can0  083   [8]  05 CC 00 00 00 0B F2 00
  can0  0B9   [8]  00 04 00 00 00 00 00 00
  can0  220   [8]  FF A3 82 00 00 1C 10 69
  can0  2B0   [8]  6C FF 00 07 D0 00 00 00
  can0  386   [8]  00 C0 00 00 00 40 00 80
  can0  2B0   [8]  6C FF 00 07 C1 00 00 00
  can0  220   [8]  FF 63 82 00 00 1C 10 79
  can0  093   [8]  05 CC 00 00 00 11 01 31
  can0  073   [8]  05 CC 00 00 00 2C 01 31
  can0  083   [8]  05 CC 00 00 00 15 18 15
  can0  0B9   [8]  00 04 00 00 00 00 00 00
  can0  2B0   [8]  6B FF 00 07 82 00 00 00
  can0  220   [8]  FF 43 82 00 00 1C 10 89
  can0  220   [8]  FE 63 82 00 00 1B 10 97
  can0  2B0   [8]  6B FF 00 07 93 00 00 00
  can0  093   [8]  05 CC 00 00 00 11 01 31
  can0  073   [8]  05 CC 00 00 00 2C 01 31
  can0  083   [8]  05 CC 00 00 00 15 18 15
  can0  0B9   [8]  00 04 00 00 00 00 00 00
  can0  2B0   [8]  6B FF 00 07 E4 00 00 00
  can0  220   [8]  FE A3 82 00 00 1C 10 A6
  can0  220   [8]  FF 63 82 00 00 1D 10 B8
  can0  2B0   [8]  6B FF 00 07 F5 00 00 00
  can0  093   [8]  05 CC 00 00 00 11 01 31
  can0  073   [8]  05 CC 00 00 00 89 00 00
  can0  083   [8]  05 CC 00 00 00 15 18 15
  can0  0B9   [8]  00 04 00 00 00 00 00 00
  can0  2B0   [8]  6B FF 00 07 C6 00 00 00
  can0  220   [8]  FE 43 82 00 00 1C 10 C6
  can0  2B0   [8]  6C FF 00 07 A7 00 00 00
  can0  220   [8]  FC 63 82 00 00 1B 10 D5
  can0  093   [8]  05 CC 00 00 00 11 01 31
  can0  073   [8]  05 CC 00 00 00 2C 01 31
  can0  083   [8]  05 CC 00 00 00 15 18 15
  can0  0B9   [8]  00 04 00 00 00 00 00 00
  can0  2B0   [8]  6C FF 00 07 58 00 00 00
  can0  220   [8]  FC 83 82 00 00 1A 10 E2
  can0  2B0   [8]  6C FF 00 07 49 00 00 00
  can0  220   [8]  FB 83 82 00 00 1B 10 F2
  can0  093   [8]  05 CC 00 00 00 04 04 01
  can0  073   [8]  05 CC 00 00 00 2C 01 31
  can0  083   [8]  05 CC 00 00 00 0B F2 00
  can0  220   [8]  FC 63 82 00 00 1D 10 07
  can0  0B9   [8]  00 04 00 00 00 00 00 00
  can0  2B0   [8]  6C FF 00 07 7A 00 00 00
  can0  386   [8]  00 00 00 80 00 40 00 80
  can0  2B0   [8]  6C FF 00 07 6B 00 00 00
  can0  220   [8]  FD 63 82 00 00 1A 10 15
  can0  093   [8]  05 CC 00 00 00 11 01 31
  can0  073   [8]  05 CC 00 00 00 2C 01 31
  can0  083   [8]  05 CC 00 00 00 15 18 15
  can0  220   [8]  FD 63 82 00 00 17 10 20
  can0  0B9   [8]  00 04 00 00 00 00 00 00
  can0  2B0   [8]  6C FF 00 07 1C 00 00 00
  can0  386   [8]  00 40 00 80 00 40 00 80
  can0  2B0   [8]  6C FF 00 07 0D 00 00 00
  can0  220   [8]  FE 43 82 00 00 1A 10 34
  can0  093   [8]  05 CC 00 00 00 00 00 00
  can0  073   [8]  05 CC 00 00 00 2C 01 31
  can0  083   [8]  05 CC 00 00 00 15 18 15
  can0  220   [8]  FF 83 82 00 00 1B 10 46
  can0  0B9   [8]  00 04 00 00 00 00 00 00
  can0  2B0   [8]  6C FF 00 07 3E 00 00 00
  can0  386   [8]  00 80 00 80 00 40 00 80
  can0  2B0   [8]  6C FF 00 07 2F 00 00 00
  can0  220   [8]  FD C3 82 00 00 1A 10 55
  can0  093   [8]  05 CC 00 00 00 11 01 31
  can0  073   [8]  05 CC 00 00 00 2C 01 31
  can0  083   [8]  05 CC 00 00 00 15 18 15
  can0  2B0   [8]  6C FF 00 07 D0 00 00 00
  can0  220   [8]  FC A3 82 00 00 1B 10 65
  can0  0B9   [8]  00 04 00 00 00 00 00 00
  can0  386   [8]  00 C0 00 80 00 40 00 80
  can0  2B0   [8]  6C FF 00 07 C1 00 00 00
  can0  220   [8]  FD 43 82 00 00 1C 10 77
  can0  093   [8]  05 CC 00 00 00 11 01 31
  can0  073   [8]  05 CC 00 00 00 2C 01 31
  can0  083   [8]  05 CC 00 00 00 15 18 15
  can0  0D8   [8]  00 00 00 00 00 00 00 00
  can0  2B0   [8]  6C FF 00 07 F2 00 00 00
  can0  220   [8]  FE 43 82 00 00 1B 10 87
  can0  0B9   [8]  00 04 00 00 00 00 00 00
  can0  2B0   [8]  6C FF 00 07 E3 00 00 00
  can0  220   [8]  FE 63 82 00 00 18 10 92
  can0  093   [8]  05 CC 00 00 00 E0 0B 13
  can0  073   [8]  05 CC 00 00 00 2C 01 31
  can0  083   [8]  05 CC 00 00 00 00 00 00
  can0  2B0   [8]  6C FF 00 07 94 00 00 00
  can0  220   [8]  FF 23 82 00 00 16 10 A3
  can0  386   [8]  00 40 00 C0 00 40 00 80
  can0  0B9   [8]  00 04 00 00 00 00 00 00
  can0  2B0   [8]  6C FF 00 07 85 00 00 00
  can0  220   [8]  FF 43 82 00 00 17 10 B2
  can0  093   [8]  05 CC 00 00 00 11 01 31
  can0  073   [8]  05 CC 00 00 00 31 08 04
  can0  083   [8]  05 CC 00 00 00 00 18 15
  can0  2B0   [8]  6C FF 00 07 B6 00 00 00
  can0  220   [8]  FE A3 82 00 00 18 10 C2
  can0  386   [8]  00 80 00 C0 00 40 00 80
  can0  0B9   [8]  00 04 00 00 00 00 00 00
  can0  2B0   [8]  6C FF 00 07 A7 00 00 00
  can0  220   [8]  FD A3 82 00 00 1A 10 D5
  can0  093   [8]  05 CC 00 00 00 25 2F 82
  can0  073   [8]  05 CC 00 00 00 2C 01 31
  can0  083   [8]  05 CC 00 00 00 00 18 15
  can0  2B0   [8]  6C FF 00 07 58 00 00 00
  can0  220   [8]  FD 43 82 00 00 1D 10 E6
  can0  386   [8]  00 C0 00 C0 00 40 00 80
  can0  0B9   [8]  00 04 00 00 00 00 00 00
  can0  2B0   [8]  6C FF 00 07 49 00 00 00
  can0  220   [8]  FE 43 82 00 00 1C 10 F6
  can0  093   [8]  05 CC 00 00 00 11 01 31
  can0  073   [8]  05 CC 00 00 00 2C 01 31
  can0  083   [8]  05 CC 00 00 00 00 18 15
  can0  2B0   [8]  6C FF 00 07 7A 00 00 00
  can0  220   [8]  FF A3 82 00 00 1A 10 07
  can0  386   [8]  00 00 00 00 00 40 00 80
  can0  0B9   [8]  00 04 00 00 00 00 00 00
  can0  2B0   [8]  6B FF 00 07 1B 00 00 00
  can0  220   [8]  FF A3 82 00 00 19 10 14
  can0  093   [8]  05 CC 00 00 00 11 01 31
  can0  073   [8]  05 CC 00 00 00 00 00 00
  can0  083   [8]  05 CC 00 00 00 00 18 15
  can0  220   [8]  FF 43 82 00 00 19 10 24
  can0  2B0   [8]  6C FF 00 07 1C 00 00 00
  can0  386   [8]  00 40 00 00 00 40 00 80
  can0  0B9   [8]  00 04 00 00 00 00 00 00
  can0  2B0   [8]  6A FF 00 07 6D 00 00 00
  can0  220   [8]  FF 23 82 00 00 17 10 32
  can0  093   [8]  05 CC 00 00 00 9F 0A E0
  can0  073   [8]  05 CC 00 00 00 2C 01 31
  can0  083   [8]  05 CC 00 00 00 82 0A DE
  can0  2B0   [8]  6C FF 00 07 3E 00 00 00
  can0  220   [8]  FE 43 82 00 00 17 10 43
  can0  386   [8]  00 80 00 00 00 40 00 80
  can0  0B9   [8]  00 04 00 00 00 00 00 00
  can0  2B0   [8]  6C FF 00 07 2F 00 00 00
  can0  220   [8]  FD 83 82 00 00 19 10 52
  can0  093   [8]  05 CC 00 00 00 11 01 31
  can0  073   [8]  05 CC 00 00 00 2C 01 31
  can0  083   [8]  05 CC 00 00 00 01 18 15
  can0  2B0   [8]  6B FF 00 07 A0 00 00 00
  can0  220   [8]  FD A3 82 00 00 1C 10 67
  can0  0B9   [8]  00 04 00 00 00 00 00 00
  can0  2B0   [8]  6B FF 00 07 B1 00 00 00
  can0  220   [8]  FF 83 82 00 00 1D 10 78
  can0  093   [8]  05 CC 00 00 00 11 01 31
  can0  073   [8]  05 CC 00 00 00 2C 01 31
  can0  083   [8]  05 CC 00 00 00 01 18 15
  can0  220   [8]  FF 43 82 00 00 1C 10 89
  can0  2B0   [8]  6B FF 00 07 82 00 00 00
  can0  386   [8]  00 00 00 40 00 40 00 80
  can0  0B9   [8]  00 04 00 00 00 00 00 00
  can0  2B0   [8]  6C FF 00 07 E3 00 00 00
  can0  220   [8]  FF 63 82 00 00 1C 10 99
  can0  093   [8]  05 CC 00 00 00 00 00 00
  can0  073   [8]  05 CC 00 00 00 2C 01 31
  can0  083   [8]  05 CC 00 00 00 01 18 15
  can0  220   [8]  FE 63 82 00 00 1A 10 A4
  can0  2B0   [8]  6C FF 00 07 94 00 00 00
  can0  386   [8]  00 40 00 40 00 40 00 80
  can0  0B9   [8]  00 04 00 00 00 00 00 00
  can0  2B0   [8]  6C FF 00 07 85 00 00 00
  can0  220   [8]  FF 43 82 00 00 1B 10 B6
  can0  093   [8]  05 CC 00 00 00 11 01 31
  can0  073   [8]  05 CC 00 00 00 2C 01 31
  can0  083   [8]  05 CC 00 00 00 01 18 15
  can0  0D8   [8]  00 00 00 00 00 00 00 00
  can0  220   [8]  FF 63 82 00 00 1A 10 C7
  can0  2B0   [8]  6B FF 00 07 C6 00 00 00
  can0  386   [8]  00 80 00 40 00 40 00 80
  can0  0B9   [8]  00 04 00 00 00 00 00 00
  can0  2B0   [8]  6B FF 00 07 D7 00 00 00
  can0  220   [8]  FD A3 82 00 00 1B 10 D4
  can0  093   [8]  05 CC 00 00 00 11 01 31
  can0  073   [8]  05 CC 00 00 00 2C 01 31
  can0  083   [8]  05 CC 00 00 00 09 82 0A
  can0  220   [8]  FC 83 82 00 00 1E 10 E6
  can0  2B0   [8]  6B FF 00 07 28 00 00 00
  can0  386   [8]  00 C0 00 40 00 40 00 80
  can0  0B9   [8]  00 04 00 00 00 00 00 00
  can0  2B0   [8]  6C FF 00 07 49 00 00 00
  can0  220   [8]  FD 63 82 00 00 1B 10 F4
  can0  093   [8]  05 CC 00 00 00 E0 0B 13
  can0  073   [8]  05 CC 00 00 00 E0 0B 89
  can0  083   [8]  05 CC 00 00 00 DE 0B F2
  can0  220   [8]  FD 83 82 00 00 19 10 02
  can0  2B0   [8]  6C FF 00 07 7A 00 00 00
  can0  386   [8]  00 00 00 80 00 40 00 80
  can0  0B9   [8]  00 04 00 00 00 00 00 00
  can0  2B0   [8]  6C FF 00 07 6B 00 00 00
  can0  220   [8]  FC 63 82 00 00 1A 10 12
  can0  093   [8]  05 CC 00 00 00 11 01 31
  can0  073   [8]  05 CC 00 00 00 2C 01 31
  can0  083   [8]  05 CC 00 00 00 18 18 15
  can0  220   [8]  FB 43 82 00 00 19 10 20
  can0  2B0   [8]  6C FF 00 07 1C 00 00 00
  can0  386   [8]  00 40 00 80 00 40 00 80
  can0  0B9   [8]  00 04 00 00 00 00 00 00
  can0  2B0   [8]  6B FF 00 07 7D 00 00 00
  can0  220   [8]  FE 83 82 00 00 16 10 30
  can0  093   [8]  05 CC 00 00 00 11 01 31
  can0  073   [8]  05 CC 00 00 00 2C 01 31
  can0  083   [8]  05 CC 00 00 00 18 18 15
  can0  2B0   [8]  6B FF 00 07 4E 00 00 00
  can0  220   [8]  FF 63 82 00 00 18 10 45
  can0  386   [8]  00 80 00 80 00 40 00 80
  can0  0B9   [8]  00 04 00 00 00 00 00 00
  can0  2B0   [8]  6C FF 00 07 2F 00 00 00
  can0  220   [8]  FE 43 82 00 00 1B 10 57
  can0  093   [8]  05 CC 00 00 00 11 01 31
  can0  073   [8]  05 CC 00 00 00 2C 01 31
  can0  083   [8]  05 CC 00 00 00 18 18 15
  can0  2B0   [8]  6C FF 00 07 D0 00 00 00
  can0  220   [8]  FE 03 82 00 00 1A 10 64
  can0  0B9   [8]  00 04 00 00 00 00 00 00
  can0  2B0   [8]  6B FF 00 07 B1 00 00 00
  can0  220   [8]  FE 43 82 00 00 18 10 72
  can0  093   [8]  05 CC 00 00 00 11 01 31
  can0  073   [8]  05 CC 00 00 00 04 04 01
  can0  083   [8]  05 CC 00 00 00 18 18 15
  can0  2B0   [8]  6B FF 00 07 82 00 00 00
  can0  220   [8]  FE 63 82 00 00 19 10 85
  can0  0B9   [8]  00 04 00 00 00 00 00 00
  can0  2B0   [8]  6C FF 00 07 E3 00 00 00
  can0  220   [8]  FF 63 82 00 00 1A 10 97
  can0  093   [8]  05 CC 00 00 00 11 01 31
  can0  073   [8]  05 CC 00 00 00 2C 01 31
  can0  083   [8]  05 CC 00 00 00 DE 0B F2
  can0  2B0   [8]  6C FF 00 07 94 00 00 00
  can0  220   [8]  FF 63 82 00 00 1D 10 A8
  can0  0B9   [8]  00 04 00 00 00 00 00 00
  can0  2B0   [8]  6C FF 00 07 85 00 00 00
  can0  220   [8]  FF 63 82 00 00 1D 10 B8
  can0  093   [8]  05 CC 00 00 00 00 00 00
  can0  073   [8]  05 CC 00 00 00 2C 01 31
  can0  083   [8]  05 CC 00 00 00 18 18 15
  can0  2B0   [8]  6C FF 00 07 B6 00 00 00
  can0  220   [8]  FE 63 82 00 00 1C 10 C6
  can0  0B9   [8]  00 04 00 00 00 00 00 00
  can0  2B0   [8]  6B FF 00 07 D7 00 00 00
  can0  220   [8]  FE 63 82 00 00 1B 10 D7
  can0  093   [8]  05 CC 00 00 00 11 01 31
  can0  073   [8]  05 CC 00 00 00 2C 01 31
  can0  083   [8]  05 CC 00 00 00 18 18 15
  can0  2B0   [8]  6B FF 00 07 28 00 00 00
  can0  220   [8]  FF 63 82 00 00 1D 10 E8
  can0  386   [8]  00 C0 00 C0 00 40 00 80
  can0  0B9   [8]  00 04 00 00 00 00 00 00
  can0  2B0   [8]  6B FF 00 07 39 00 00 00
  can0  220   [8]  FF 43 82 00 00 1D 10 F8
  can0  093   [8]  05 CC 00 00 00 11 01 31
  can0  073   [8]  05 CC 00 00 00 2C 01 31
  can0  083   [8]  05 CC 00 00 00 18 18 15
  can0  2B0   [8]  6C FF 00 07 7A 00 00 00
  can0  0D8   [8]  00 00 00 00 00 00 00 00
  can0  220   [8]  FE 83 82 00 00 1A 10 04
  can0  0B9   [8]  00 04 00 00 00 00 00 00
  can0  2B0   [8]  6B FF 00 07 1B 00 00 00
  can0  220   [8]  FE A3 82 00 00 18 10 12
  can0  093   [8]  05 CC 00 00 00 08 9F 0A
  can0  073   [8]  05 CC 00 00 00 2C 01 31
  can0  083   [8]  05 CC 00 00 00 18 18 15
  can0  2B0   [8]  6B FF 00 07 6C 00 00 00
  can0  220   [8]  FE 83 82 00 00 15 10 21
  can0  0B9   [8]  00 04 00 00 00 00 00 00
  can0  2B0   [8]  6C FF 00 07 0D 00 00 00
  can0  220   [8]  FE 63 82 00 00 18 10 32
  can0  093   [8]  05 CC 00 00 00 11 01 31
  can0  073   [8]  05 CC 00 00 00 2C 01 31
  can0  083   [8]  05 CC 00 00 00 DE 0B F2
  can0  2B0   [8]  6C FF 00 07 3E 00 00 00
  can0  220   [8]  FF 63 82 00 00 1B 10 46
  can0  0B9   [8]  00 04 00 00 00 00 00 00
  can0  2B0   [8]  6C FF 00 07 2F 00 00 00
  can0  220   [8]  FF A3 82 00 00 1A 10 57
  can0  093   [8]  05 CC 00 00 00 11 01 31
  can0  073   [8]  05 CC 00 00 00 AA 08 9F
  can0  083   [8]  05 CC 00 00 00 18 18 15
  can0  2B0   [8]  6C FF 00 07 D0 00 00 00
  can0  220   [8]  FF C3 82 00 00 1B 10 66
  can0  0B9   [8]  00 04 00 00 00 00 00 00
  can0  2B0   [8]  6C FF 00 07 C1 00 00 00
  can0  220   [8]  FF 63 82 00 00 1D 10 78
  can0  093   [8]  05 CC 00 00 00 11 01 31
  can0  073   [8]  05 CC 00 00 00 2C 01 31
  can0  083   [8]  05 CC 00 00 00 18 18 15
  can0  220   [8]  FF 83 82 00 00 1C 10 89
  can0  2B0   [8]  6C FF 00 07 F2 00 00 00
  can0  386   [8]  00 00 00 40 00 40 00 80
  can0  0B9   [8]  00 04 00 00 00 00 00 00
  can0  2B0   [8]  6C FF 00 07 E3 00 00 00
  can0  220   [8]  FD A3 82 00 00 1A 10 95
  can0  093   [8]  05 CC 00 00 00 25 2F 82
  can0  073   [8]  05 CC 00 00 00 2C 01 31
  can0  083   [8]  05 CC 00 00 00 18 18 15
  can0  2B0   [8]  6C FF 00 07 94 00 00 00
  can0  220   [8]  FC 83 82 00 00 19 10 A3
  can0  0B9   [8]  00 04 00 00 00 00 00 00
  can0  2B0   [8]  6C FF 00 07 85 00 00 00
  can0  220   [8]  FD 63 82 00 00 19 10 B2
  can0  093   [8]  05 CC 00 00 00 11 01 31
  can0  073   [8]  05 CC 00 00 00 40 AA 08
  can0  083   [8]  05 CC 00 00 00 18 18 15
  can0  220   [8]  FE A3 82 00 00 19 10 C5
  can0  2B0   [8]  6C FF 00 07 B6 00 00 00
  can0  386   [8]  00 80 00 40 00 40 00 80
  can0  0B9   [8]  00 04 00 00 00 00 00 00
  can0  2B0   [8]  6C FF 00 07 A7 00 00 00
  can0  220   [8]  FC A3 82 00 00 1B 10 D5
  can0  093   [8]  05 CC 00 00 00 11 01 31
  can0  073   [8]  05 CC 00 00 00 2C 01 31
  can0  083   [8]  05 CC 00 00 00 15 01 35
  can0  220   [8]  FC A3 82 00 00 1B 10 E5
  can0  2B0   [8]  6C FF 00 07 58 00 00 00
  can0  386   [8]  00 C0 00 40 00 40 00 80
  can0  0B9   [8]  00 04 00 00 00 00 00 00
  can0  2B0   [8]  6C FF 00 07 49 00 00 00
  can0  220   [8]  FE A3 82 00 00 19 10 F5
  can0  093   [8]  05 CC 00 00 00 11 01 31
  can0  073   [8]  05 CC 00 00 00 2C 01 31
  can0  083   [8]  05 CC 00 00 00 00 18 15
  can0  220   [8]  FF 63 82 00 00 18 10 05
  can0  2B0   [8]  6C FF 00 07 7A 00 00 00
  can0  386   [8]  00 00 00 80 00 40 00 80
  can0  0B9   [8]  00 04 00 00 00 00 00 00
  can0  2B0   [8]  6C FF 00 07 6B 00 00 00
  can0  220   [8]  FF 43 82 00 00 1C 10 19
  can0  093   [8]  05 CC 00 00 00 11 01 31
  can0  073   [8]  05 CC 00 00 00 2C 01 31
  can0  083   [8]  05 CC 00 00 00 00 18 15
  can0  2B0   [8]  6C FF 00 07 1C 00 00 00
  can0  220   [8]  FD 43 82 00 00 1C 10 27
  can0  386   [8]  00 40 00 80 00 40 00 80
  can0  0B9   [8]  00 04 00 00 00 00 00 00
  can0  2B0   [8]  6C FF 00 07 0D 00 00 00
  can0  220   [8]  FD 43 82 00 00 1B 10 34
  can0  093   [8]  05 CC 00 00 00 11 01 31
  can0  073   [8]  05 CC 00 00 00 EF 40 AA
  can0  083   [8]  05 CC 00 00 00 00 18 15
  can0  2B0   [8]  6C FF 00 07 3E 00 00 00
  can0  220   [8]  FE 43 82 00 00 1C 10 46
  can0  0D8   [8]  00 00 00 00 00 00 00 00
  can0  0B9   [8]  00 04 00 00 00 00 00 00
  can0  2B0   [8]  6C FF 00 07 2F 00 00 00
  can0  220   [8]  FF 43 82 00 00 1B 10 56
  can0  093   [8]  05 CC 00 00 00 04 04 01
  can0  073   [8]  05 CC 00 00 00 2C 01 31
  can0  083   [8]  05 CC 00 00 00 00 18 15
  can0  2B0   [8]  6C FF 00 07 D0 00 00 00
  can0  220   [8]  FF 43 82 00 00 19 10 64
  can0  386   [8]  00 C0 00 80 00 40 00 80
  can0  0B9   [8]  00 04 00 00 00 00 00 00
  can0  2B0   [8]  6C FF 00 07 C1 00 00 00
  can0  220   [8]  FE 63 82 00 00 19 10 75
  can0  093   [8]  05 CC 00 00 00 11 01 31
  can0  073   [8]  05 CC 00 00 00 2C 01 31
  can0  083   [8]  05 CC 00 00 00 15 01 35
  can0  2B0   [8]  6C FF 00 07 F2 00 00 00
  can0  220   [8]  FE 43 82 00 00 1A 10 84
  can0  386   [8]  00 00 00 C0 00 40 00 80
  can0  0B9   [8]  00 04 00 00 00 00 00 00
  can0  2B0   [8]  6C FF 00 07 E3 00 00 00
  can0  220   [8]  FE 43 82 00 00 1A 10 94
  can0  093   [8]  05 CC 00 00 00 13 00 00
  can0  073   [8]  05 CC 00 00 00 2C 01 31
  can0  083   [8]  05 CC 00 00 00 F2 00 00
  can0  2B0   [8]  6C FF 00 07 94 00 00 00
  can0  220   [8]  FE 63 82 00 00 1A 10 A4
  can0  386   [8]  00 40 00 C0 00 40 00 80
  can0  0B9   [8]  00 04 00 00 00 00 00 00
  can0  2B0   [8]  6B FF 00 07 F5 00 00 00
  can0  220   [8]  FF 43 82 00 00 1A 10 B7
  can0  093   [8]  05 CC 00 00 00 11 01 31
  can0  073   [8]  05 CC 00 00 00 9F 0A E0
  can0  083   [8]  05 CC 00 00 00 18 18 15
  can0  2B0   [8]  6B FF 00 07 C6 00 00 00
  can0  220   [8]  FE 63 82 00 00 19 10 C5
  can0  386   [8]  00 80 00 C0 00 40 00 80
  can0  0B9   [8]  00 04 00 00 00 00 00 00
  can0  2B0   [8]  6A FF 00 07 C7 00 00 00
  can0  220   [8]  FF C3 82 00 00 19 10 D4
  can0  093   [8]  05 CC 00 00 00 11 01 31
  can0  073   [8]  05 CC 00 00 00 2C 01 31
  can0  083   [8]  05 CC 00 00 00 18 18 15
  can0  2B0   [8]  6C FF 00 07 58 00 00 00
  can0  220   [8]  FE A3 82 00 00 1C 10 E6
  can0  0B9   [8]  00 04 00 00 00 00 00 00
  can0  2B0   [8]  6B FF 00 07 39 00 00 00
  can0  220   [8]  FE 83 82 00 00 1E 10 F8
  can0  093   [8]  05 CC 00 00 00 0B 13 00
  can0  073   [8]  05 CC 00 00 00 2C 01 31
  can0  083   [8]  05 CC 00 00 00 18 18 15
  can0  2B0   [8]  6C FF 00 07 7A 00 00 00
  can0  220   [8]  FF 43 82 00 00 1D 10 08
  can0  386   [8]  00 00 00 00 00 40 00 80
  can0  0B9   [8]  00 04 00 00 00 00 00 00
  can0  2B0   [8]  6C FF 00 07 6B 00 00 00
  can0  220   [8]  FE 63 82 00 00 1D 10 19
  can0  093   [8]  05 CC 00 00 00 11 01 31
  can0  073   [8]  05 CC 00 00 00 AA 08 9F
  can0  083   [8]  05 CC 00 00 00 15 01 35
  can0  2B0   [8]  6C FF 00 07 1C 00 00 00
  can0  220   [8]  FB A3 82 00 00 1F 10 26
  can0  386   [8]  00 40 00 00 00 40 00 80
  can0  0B9   [8]  00 04 00 00 00 00 00 00
  can0  2B0   [8]  6C FF 00 07 0D 00 00 00
  can0  220   [8]  FB A3 82 00 00 1E 10 37
  can0  093   [8]  05 CC 00 00 00 04 04 01
  can0  073   [8]  05 CC 00 00 00 2C 01 31
  can0  083   [8]  05 CC 00 00 00 02 00 14
  can0  2B0   [8]  6C FF 00 07 3E 00 00 00
  can0  220   [8]  FD A3 82 00 00 1A 10 45
  can0  386   [8]  00 80 00 00 00 40 00 80
  can0  0B9   [8]  00 04 00 00 00 00 00 00
  can0  2B0   [8]  6B FF 00 07 5F 00 00 00
  can0  220   [8]  FC 83 82 00 00 18 10 50
  can0  093   [8]  05 CC 00 00 00 11 01 31
  can0  073   [8]  05 CC 00 00 00 2C 01 31
  can0  083   [8]  05 CC 00 00 00 12 18 15
  can0  2B0   [8]  6C FF 00 07 D0 00 00 00
  can0  220   [8]  FB 63 82 00 00 17 10 6E
  can0  386   [8]  00 C0 00 00 00 40 00 80
  can0  0B9   [8]  00 04 00 00 00 00 00 00
  can0  2B0   [8]  6C FF 00 07 C1 00 00 00
  can0  220   [8]  FB 43 82 00 00 17 10 7E
  can0  093   [8]  05 CC 00 00 00 11 01 31
  can0  073   [8]  05 CC 00 00 00 2C 01 31
  can0  083   [8]  05 CC 00 00 00 12 18 15
  can0  220   [8]  FB 23 82 00 00 19 10 80
  can0  2B0   [8]  6C FF 00 07 F2 00 00 00
  can0  0D8   [8]  00 00 00 00 00 00 00 00
  can0  386   [8]  00 00 00 40 00 40 00 80
  can0  0B9   [8]  00 04 00 00 00 00 00 00
  can0  2B0   [8]  6C FF 00 07 E3 00 00 00
  can0  220   [8]  FD 23 82 00 00 1A 10 95
  can0  093   [8]  05 CC 00 00 00 11 01 31
  can0  073   [8]  05 CC 00 00 00 2C 01 31
  can0  083   [8]  05 CC 00 00 00 12 18 15
  can0  2B0   [8]  6B FF 00 07 E4 00 00 00
  can0  220   [8]  FE 83 82 00 00 1B 10 A7
  can0  386   [8]  00 40 00 40 00 40 00 80
  can0  0B9   [8]  00 04 00 00 00 00 00 00
  can0  2B0   [8]  6C FF 00 07 85 00 00 00
  can0  220   [8]  FD 83 82 00 00 1A 10 B5
  can0  093   [8]  05 CC 00 00 00 04 04 01
  can0  073   [8]  05 CC 00 00 00 2C 01 31
  can0  083   [8]  05 CC 00 00 00 12 18 15
  can0  220   [8]  FD 63 82 00 00 1A 10 C5
  can0  2B0   [8]  6C FF 00 07 B6 00 00 00
  can0  386   [8]  00 80 00 40 00 40 00 80
  can0  0B9   [8]  00 04 00 00 00 00 00 00
  can0  2B0   [8]  6C FF 00 07 A7 00 00 00
  can0  220   [8]  FE 63 82 00 00 17 10 D3
  can0  093   [8]  05 CC 00 00 00 11 01 31
  can0  073   [8]  05 CC 00 00 00 2C 01 31
  can0  083   [8]  05 CC 00 00 00 00 14 09
  can0  220   [8]  FE 83 82 00 00 16 10 E0
  can0  2B0   [8]  6C FF 00 07 58 00 00 00
  can0  386   [8]  00 C0 00 40 00 40 00 80
  can0  0B9   [8]  00 04 00 00 00 00 00 00
  can0  2B0   [8]  6B FF 00 07 39 00 00 00
  can0  220   [8]  FE A3 82 00 00 18 10 F2
  can0  093   [8]  05 CC 00 00 00 13 00 00
  can0  073   [8]  05 CC 00 00 00 04 04 01
  can0  083   [8]  05 CC 00 00 00 35 08 03
  can0  2B0   [8]  6B FF 00 07 0A 00 00 00
  can0  220   [8]  FD 83 82 00 00 18 10 03
  can0  386   [8]  00 00 00 80 00 40 00 80
  can0  0B9   [8]  00 04 00 00 00 00 00 00
  can0  2B0   [8]  6B FF 00 07 1B 00 00 00
  can0  220   [8]  FC 83 82 00 00 17 10 11
  can0  093   [8]  05 CC 00 00 00 11 01 31
  can0  073   [8]  05 CC 00 00 00 2C 01 31
  can0  083   [8]  05 CC 00 00 00 CC 18 15
  can0  2B0   [8]  6B FF 00 07 6C 00 00 00
  can0  220   [8]  FE 63 82 00 00 1C 10 26
  can0  0B9   [8]  00 04 00 00 00 00 00 00
  can0  2B0   [8]  6C FF 00 07 0D 00 00 00
  can0  220   [8]  FE 63 82 00 00 1B 10 37
  can0  093   [8]  05 CC 00 00 00 11 01 31
  can0  073   [8]  05 CC 00 00 00 2C 01 31
  can0  083   [8]  05 CC 00 00 00 CC 18 15
  can0  2B0   [8]  6B FF 00 07 4E 00 00 00
  can0  220   [8]  FB C3 82 00 00 19 10 40
  can0  386   [8]  00 80 00 80 00 40 00 80
  can0  0B9   [8]  00 04 00 00 00 00 00 00
  can0  2B0   [8]  6B FF 00 07 5F 00 00 00
  can0  220   [8]  FB C3 82 00 00 18 10 51
  can0  093   [8]  05 CC 00 00 00 0B 13 00
  can0  073   [8]  05 CC 00 00 00 2C 01 31
  can0  083   [8]  05 CC 00 00 00 CC 18 15
  can0  2B0   [8]  6B FF 00 07 A0 00 00 00
  can0  220   [8]  FD A3 82 00 00 15 10 6E
  can0  386   [8]  00 C0 00 80 00 40 00 80
  can0  0B9   [8]  00 04 00 00 00 00 00 00
  can0  2B0   [8]  6C FF 00 07 C1 00 00 00
  can0  220   [8]  FE 83 82 00 00 1A 10 74
  can0  093   [8]  05 CC 00 00 00 11 01 31
  can0  073   [8]  05 CC 00 00 00 89 00 00
  can0  083   [8]  05 CC 00 00 00 CC 18 15
  can0  2B0   [8]  6C FF 00 07 F2 00 00 00
  can0  220   [8]  FF 43 82 00 00 1B 10 86
  can0  386   [8]  00 00 00 C0 00 40 00 80
  can0  0B9   [8]  00 04 00 00 00 00 00 00
  can0  2B0   [8]  6C FF 00 07 E3 00 00 00
  can0  220   [8]  FF 63 82 00 00 16 10 93
  can0  093   [8]  05 CC 00 00 00 11 01 31
  can0  073   [8]  05 CC 00 00 00 2C 01 31
  can0  083   [8]  05 CC 00 00 00 35 08 03
  can0  220   [8]  FE 63 82 00 00 16 10 A0
  can0  2B0   [8]  6C FF 00 07 94 00 00 00
  can0  386   [8]  00 40 00 C0 00 40 00 80
  can0  2B0   [8]  6C FF 00 07 85 00 00 00
  can0  0B9   [8]  00 04 00 00 00 00 00 00
  can0  220   [8]  FE 63 82 00 00 18 10 B2
  can0  093   [8]  05 CC 00 00 00 11 01 31
  can0  073   [8]  05 CC 00 00 00 2C 01 31
  can0  083   [8]  05 CC 00 00 00 CC 18 15
  can0  2B0   [8]  6C FF 00 07 B6 00 00 00
  can0  220   [8]  FE 63 82 00 00 18 10 C2
  can0  0D8   [8]  00 00 00 00 00 00 00 00
  can0  2B0   [8]  6C FF 00 07 A7 00 00 00
  can0  220   [8]  FE 43 82 00 00 1C 10 D6
  can0  0B9   [8]  00 04 00 00 00 00 00 00
  can0  093   [8]  05 CC 00 00 00 04 04 01
  can0  073   [8]  05 CC 00 00 00 2C 01 31
  can0  083   [8]  05 CC 00 00 00 CC 18 15
  can0  2B0   [8]  6C FF 00 07 58 00 00 00
  can0  220   [8]  FF 63 82 00 00 1C 10 E9
  can0  386   [8]  00 C0 00 C0 00 40 00 80
  can0  2B0   [8]  6C FF 00 07 49 00 00 00
  can0  220   [8]  FD 43 82 00 00 1A 10 F5
  can0  0B9   [8]  00 04 00 00 00 00 00 00
  can0  093   [8]  05 CC 00 00 00 11 01 31
  can0  073   [8]  05 CC 00 00 00 2C 01 31
  can0  083   [8]  05 CC 00 00 00 CC 18 15
  can0  2B0   [8]  6C FF 00 07 7A 00 00 00
  can0  220   [8]  FC 43 82 00 00 19 10 03
  can0  386   [8]  00 00 00 00 00 40 00 80
  can0  2B0   [8]  6C FF 00 07 6B 00 00 00
  can0  220   [8]  FD 83 82 00 00 19 10 12
  can0  0B9   [8]  00 04 00 00 00 00 00 00
  can0  093   [8]  05 CC 00 00 00 11 01 31
  can0  073   [8]  05 CC 00 00 00 2C 01 31
  can0  083   [8]  05 CC 00 00 00 CC 18 15
  can0  2B0   [8]  6C FF 00 07 1C 00 00 00
  can0  220   [8]  FE A3 82 00 00 1B 10 27
  can0  386   [8]  00 40 00 00 00 40 00 80
  can0  2B0   [8]  6C FF 00 07 0D 00 00 00
  can0  220   [8]  FE A3 82 00 00 1B 10 37
  can0  0B9   [8]  00 04 00 00 00 00 00 00
  can0  093   [8]  05 CC 00 00 00 11 01 31
  can0  073   [8]  05 CC 00 00 00 2C 01 31
  can0  083   [8]  05 CC 00 00 00 35 08 03
  can0  2B0   [8]  6C FF 00 07 3E 00 00 00
  can0  220   [8]  FE 83 82 00 00 1A 10 44
  can0  386   [8]  00 80 00 00 00 40 00 80
  can0  2B0   [8]  6C FF 00 07 2F 00 00 00
  can0  220   [8]  FD 63 82 00 00 19 10 52
  can0  0B9   [8]  00 04 00 00 00 00 00 00
  can0  093   [8]  05 CC 00 00 00 11 01 31
  can0  073   [8]  05 CC 00 00 00 00 00 00
  can0  083   [8]  05 CC 00 00 00 CC 18 15
  can0  2B0   [8]  6C FF 00 07 D0 00 00 00
  can0  220   [8]  FC 63 82 00 00 18 10 60
  can0  2B0   [8]  6B FF 00 07 B1 00 00 00
  can0  220   [8]  FE A3 82 00 00 1B 10 77
  can0  0B9   [8]  00 04 00 00 00 00 00 00
  can0  093   [8]  05 CC 00 00 00 11 01 31
  can0  073   [8]  05 CC 00 00 00 2C 01 31
  can0  083   [8]  05 CC 00 00 00 CC 18 15
  can0  2B0   [8]  6C FF 00 07 F2 00 00 00
  can0  220   [8]  FF C3 82 00 00 1F 10 8A
  can0  386   [8]  00 00 00 40 00 40 00 80
  can0  2B0   [8]  6C FF 00 07 E3 00 00 00
  can0  220   [8]  FE A3 82 00 00 1D 10 99
  can0  0B9   [8]  00 04 00 00 00 00 00 00
  can0  093   [8]  05 CC 00 00 00 0B 13 00
  can0  073   [8]  05 CC 00 00 00 2C 01 31
  can0  083   [8]  05 CC 00 00 00 CC 18 15
  can0  220   [8]  FE 83 82 00 00 18 10 A2
  can0  2B0   [8]  6B FF 00 07 E4 00 00 00
  can0  386   [8]  00 40 00 40 00 40 00 80
  can0  2B0   [8]  6B FF 00 07 F5 00 00 00
  can0  220   [8]  FF 83 82 00 00 18 10 B5
  can0  0B9   [8]  00 04 00 00 00 00 00 00
  can0  093   [8]  05 CC 00 00 00 11 01 31
  can0  073   [8]  05 CC 00 00 00 2C 01 31
  can0  083   [8]  05 CC 00 00 00 CC 18 15
  can0  2B0   [8]  6C FF 00 07 B6 00 00 00
  can0  220   [8]  FE A3 82 00 00 1A 10 C4
  can0  386   [8]  00 80 00 40 00 40 00 80
  can0  2B0   [8]  6C FF 00 07 A7 00 00 00
  can0  220   [8]  FC A3 82 00 00 18 10 D0
  can0  0B9   [8]  00 04 00 00 00 00 00 00
  can0  093   [8]  05 CC 00 00 00 11 01 31
  can0  073   [8]  05 CC 00 00 00 01 31 08
  can0  083   [8]  05 CC 00 00 00 00 00 00
  can0  2B0   [8]  6C FF 00 07 58 00 00 00
  can0  220   [8]  FF A3 82 00 00 14 10 E1
  can0  386   [8]  00 C0 00 40 00 40 00 80
  can0  2B0   [8]  6A FF 00 07 29 00 00 00
  can0  220   [8]  FF A3 82 00 00 18 10 F5
  can0  0B9   [8]  00 04 00 00 00 00 00 00
  can0  093   [8]  05 CC 00 00 00 11 01 31
  can0  073   [8]  05 CC 00 00 00 2C 01 31
  can0  083   [8]  05 CC 00 00 00 05 18 15
  can0  2B0   [8]  6A FF 00 07 1A 00 00 00
  can0  220   [8]  FE 83 82 00 00 1B 10 07
  can0  0D8   [8]  00 00 00 00 00 00 00 00
  can0  2B0   [8]  6B FF 00 07 1B 00 00 00
  can0  220   [8]  FF 43 82 00 00 19 10 14
  can0  0B9   [8]  00 04 00 00 00 00 00 00
  can0  093   [8]  05 CC 00 00 00 11 01 31
  can0  073   [8]  05 CC 00 00 00 2C 01 31
  can0  083   [8]  05 CC 00 00 00 05 18 15
  can0  2B0   [8]  6B FF 00 07 6C 00 00 00
  can0  220   [8]  FF 43 82 00 00 18 10 25
  can0  386   [8]  00 40 00 80 00 40 00 80
  can0  2B0   [8]  6C FF 00 07 0D 00 00 00
  can0  220   [8]  FD 43 82 00 00 1A 10 35
  can0  0B9   [8]  00 04 00 00 00 00 00 00
  can0  093   [8]  05 CC 00 00 00 11 01 31
  can0  073   [8]  05 CC 00 00 00 00 00 00
  can0  083   [8]  05 CC 00 00 00 05 18 15
  can0  2B0   [8]  6C FF 00 07 3E 00 00 00
  can0  220   [8]  FD 63 82 00 00 1B 10 44
  can0  386   [8]  00 80 00 80 00 40 00 80
  can0  2B0   [8]  6C FF 00 07 2F 00 00 00
  can0  220   [8]  FE A3 82 00 00 1B 10 57
  can0  093   [8]  05 CC 00 00 00 11 01 31
  can0  0B9   [8]  00 04 00 00 00 00 00 00
  can0  073   [8]  05 CC 00 00 00 2C 01 31
  can0  083   [8]  05 CC 00 00 00 05 18 15
  can0  2B0   [8]  6C FF 00 07 D0 00 00 00
  can0  220   [8]  FC A3 82 00 00 19 10 63
  can0  386   [8]  00 C0 00 80 00 40 00 80
  can0  2B0   [8]  6C FF 00 07 C1 00 00 00
  can0  220   [8]  FC 63 82 00 00 17 10 71
  can0  093   [8]  05 CC 00 00 00 11 01 31
  can0  0B9   [8]  00 04 00 00 00 00 00 00
  can0  073   [8]  05 CC 00 00 00 2C 01 31
  can0  083   [8]  05 CC 00 00 00 00 00 00
  can0  2B0   [8]  6C FF 00 07 F2 00 00 00
  can0  220   [8]  FE 63 82 00 00 1A 10 84
  can0  386   [8]  00 00 00 C0 00 40 00 80
  can0  2B0   [8]  6C FF 00 07 E3 00 00 00
  can0  220   [8]  FF A3 82 00 00 1C 10 99
  can0  093   [8]  05 CC 00 00 00 25 2F 82
  can0  0B9   [8]  00 04 00 00 00 00 00 00
  can0  073   [8]  05 CC 00 00 00 2C 01 31
  can0  083   [8]  05 CC 00 00 00 35 08 03
  can0  2B0   [8]  6C FF 00 07 94 00 00 00
  can0  220   [8]  FD A3 82 00 00 1D 10 A6
  can0  2B0   [8]  6C FF 00 07 85 00 00 00
  can0  220   [8]  FC 43 82 00 00 1A 10 B2
  can0  093   [8]  05 CC 00 00 00 11 01 31
  can0  0B9   [8]  00 04 00 00 00 00 00 00
  can0  073   [8]  05 CC 00 00 00 0B 89 00
  can0  083   [8]  05 CC 00 00 00 CC 18 15
  can0  2B0   [8]  6C FF 00 07 B6 00 00 00
  can0  220   [8]  FC 23 82 00 00 17 10 C1
  can0  386   [8]  00 80 00 C0 00 40 00 80
  can0  2B0   [8]  6C FF 00 07 A7 00 00 00
  can0  220   [8]  FD 43 82 00 00 19 10 D2
  can0  093   [8]  05 CC 00 00 00 11 01 31
  can0  0B9   [8]  00 04 00 00 00 00 00 00
  can0  073   [8]  05 CC 00 00 00 2C 01 31
  can0  083   [8]  05 CC 00 00 00 CC 18 15
  can0  2B0   [8]  6B FF 00 07 28 00 00 00
  can0  220   [8]  FF 83 82 00 00 19 10 E4
  can0  386   [8]  00 C0 00 C0 00 40 00 80
  can0  2B0   [8]  6C FF 00 07 49 00 00 00
  can0  220   [8]  FD 83 82 00 00 17 10 F0
  can0  093   [8]  05 CC 00 00 00 0A E0 0B
  can0  0B9   [8]  00 04 00 00 00 00 00 00
  can0  073   [8]  05 CC 00 00 00 2C 01 31
  can0  083   [8]  05 CC 00 00 00 CC 18 15
  can0  2B0   [8]  6B FF 00 07 0A 00 00 00
  can0  220   [8]  FD 63 82 00 00 15 10 0E
  can0  386   [8]  00 00 00 00 00 40 00 80
  can0  2B0   [8]  6B FF 00 07 1B 00 00 00
  can0  220   [8]  FF 83 82 00 00 15 10 10
  can0  093   [8]  05 CC 00 00 00 11 01 31
  can0  073   [8]  05 CC 00 00 00 0B 89 00
  can0  0B9   [8]  00 04 00 00 00 00 00 00
  can0  083   [8]  05 CC 00 00 00 00 00 00
  can0  2B0   [8]  6B FF 00 07 6C 00 00 00
  can0  220   [8]  FD 83 82 00 00 18 10 23
  can0  386   [8]  00 40 00 00 00 40 00 80
  can0  2B0   [8]  6C FF 00 07 0D 00 00 00
  can0  220   [8]  FB 83 82 00 00 1B 10 32
  can0  093   [8]  05 CC 00 00 00 11 01 31
  can0  073   [8]  05 CC 00 00 00 2C 01 31
  can0  0B9   [8]  00 04 00 00 00 00 00 00
  can0  083   [8]  05 CC 00 00 00 00 00 00
  can0  2B0   [8]  6C FF 00 07 3E 00 00 00
  can0  220   [8]  FC C3 82 00 00 19 10 43
  can0  0D8   [8]  00 00 00 00 00 00 00 00
  can0  2B0   [8]  6C FF 00 07 2F 00 00 00
  can0  220   [8]  FD C3 82 00 00 18 10 53
  can0  093   [8]  05 CC 00 00 00 00 00 00
  can0  073   [8]  05 CC 00 00 00 2C 01 31
  can0  0B9   [8]  00 04 00 00 00 00 00 00
  can0  083   [8]  05 CC 00 00 00 00 18 15
  can0  2B0   [8]  6C FF 00 07 D0 00 00 00
  can0  220   [8]  FE A3 82 00 00 1B 10 67
  can0  386   [8]  00 C0 00 00 00 40 00 80
  can0  2B0   [8]  6C FF 00 07 C1 00 00 00
  can0  220   [8]  FF A3 82 00 00 1B 10 76
  can0  093   [8]  05 CC 00 00 00 11 01 31
  can0  073   [8]  05 CC 00 00 00 2C 01 31
  can0  0B9   [8]  00 04 00 00 00 00 00 00
  can0  083   [8]  05 CC 00 00 00 00 18 15
  can0  220   [8]  FF A3 82 00 00 1C 10 89
  can0  2B0   [8]  6C FF 00 07 F2 00 00 00
  can0  386   [8]  00 00 00 40 00 40 00 80
  can0  2B0   [8]  6C FF 00 07 E3 00 00 00
  can0  220   [8]  FE 83 82 00 00 1C 10 96
  can0  093   [8]  05 CC 00 00 00 11 01 31
  can0  073   [8]  05 CC 00 00 00 04 04 01
  can0  0B9   [8]  00 04 00 00 00 00 00 00
  can0  083   [8]  05 CC 00 00 00 00 18 15
  can0  220   [8]  FC 83 82 00 00 1E 10 A6
  can0  2B0   [8]  6C FF 00 07 94 00 00 00
  can0  386   [8]  00 40 00 40 00 40 00 80
  can0  2B0   [8]  6C FF 00 07 85 00 00 00
  can0  220   [8]  FC 83 82 00 00 1E 10 B6
  can0  093   [8]  05 CC 00 00 00 9F 0A E0
  can0  073   [8]  05 CC 00 00 00 2C 01 31
  can0  0B9   [8]  00 04 00 00 00 00 00 00
  can0  083   [8]  05 CC 00 00 00 00 18 15
  can0  2B0   [8]  6C FF 00 07 B6 00 00 00
  can0  220   [8]  FE 63 82 00 00 1C 10 C6
  can0  386   [8]  00 80 00 40 00 40 00 80
  can0  2B0   [8]  6C FF 00 07 A7 00 00 00
  can0  220   [8]  FF 83 82 00 00 1B 10 D6
  can0  093   [8]  05 CC 00 00 00 11 01 31
  can0  073   [8]  05 CC 00 00 00 2C 01 31
  can0  0B9   [8]  00 04 00 00 00 00 00 00
  can0  083   [8]  05 CC 00 00 00 00 00 00
  can0  2B0   [8]  6C FF 00 07 58 00 00 00
  can0  220   [8]  FF A3 82 00 00 19 10 E4
  can0  2B0   [8]  6C FF 00 07 49 00 00 00
  can0  220   [8]  FE 83 82 00 00 17 10 F3
  can0  093   [8]  05 CC 00 00 00 25 2F 82
  can0  073   [8]  05 CC 00 00 00 2C 01 31
  can0  0B9   [8]  00 04 00 00 00 00 00 00
  can0  083   [8]  05 CC 00 00 00 60 18 15
  can0  2B0   [8]  6C FF 00 07 7A 00 00 00
  can0  220   [8]  FC 63 82 00 00 18 10 00
  can0  386   [8]  00 00 00 80 00 40 00 80
  can0  2B0   [8]  6A FF 00 07 0B 00 00 00
  can0  220   [8]  FD 83 82 00 00 1C 10 17
  can0  093   [8]  05 CC 00 00 00 11 01 31
  can0  073   [8]  05 CC 00 00 00 2C 01 31
  can0  0B9   [8]  00 04 00 00 00 00 00 00
  can0  083   [8]  05 CC 00 00 00 60 18 15
  can0  2B0   [8]  6B FF 00 07 6C 00 00 00
  can0  220   [8]  FE A3 82 00 00 1D 10 29
  can0  386   [8]  00 40 00 80 00 40 00 80
  can0  2B0   [8]  6B FF 00 07 7D 00 00 00
  can0  220   [8]  FF A3 82 00 00 19 10 34
  can0  093   [8]  05 CC 00 00 00 11 01 31
  can0  073   [8]  05 CC 00 00 00 2C 01 31
  can0  0B9   [8]  00 04 00 00 00 00 00 00
  can0  083   [8]  05 CC 00 00 00 60 18 15
  can0  2B0   [8]  6C FF 00 07 3E 00 00 00
  can0  220   [8]  FF 63 82 00 00 19 10 44
  can0  386   [8]  00 80 00 80 00 40 00 80
  can0  2B0   [8]  6C FF 00 07 2F 00 00 00
  can0  220   [8]  FC 63 82 00 00 1E 10 56
  can0  093   [8]  05 CC 00 00 00 A5 08 9F
  can0  073   [8]  05 CC 00 00 00 2C 01 31
  can0  083   [8]  05 CC 00 00 00 60 18 15
  can0  0B9   [8]  00 04 00 00 00 00 00 00
  can0  2B0   [8]  6C FF 00 07 D0 00 00 00
  can0  220   [8]  FA A3 82 00 00 20 10 66
  can0  386   [8]  00 C0 00 80 00 40 00 80
  can0  2B0   [8]  6C FF 00 07 C1 00 00 00
  can0  220   [8]  FB C3 82 00 00 1C 10 75
  can0  093   [8]  05 CC 00 00 00 11 01 31
  can0  073   [8]  05 CC 00 00 00 08 9F 0A
  can0  083   [8]  05 CC 00 00 00 60 18 15
  can0  0B9   [8]  00 04 00 00 00 00 00 00
  can0  2B0   [8]  6C FF 00 07 F2 00 00 00
  can0  220   [8]  FC A3 82 00 00 19 10 83
  can0  0D8   [8]  00 00 00 00 00 00 00 00
  can0  2B0   [8]  6C FF 00 07 E3 00 00 00
  can0  220   [8]  FC 83 82 00 00 18 10 90
  can0  093   [8]  05 CC 00 00 00 08 B0 0A
  can0  073   [8]  05 CC 00 00 00 2C 01 31
  can0  083   [8]  05 CC 00 00 00 60 18 15
  can0  0B9   [8]  00 04 00 00 00 00 00 00
  can0  2B0   [8]  6C FF 00 07 94 00 00 00
  can0  220   [8]  FD 83 82 00 00 1A 10 A5
  can0  386   [8]  00 40 00 C0 00 40 00 80
  can0  2B0   [8]  6C FF 00 07 85 00 00 00
  can0  220   [8]  FC 83 82 00 00 1C 10 B4
  can0  093   [8]  05 CC 00 00 00 11 01 31
  can0  073   [8]  05 CC 00 00 00 2C 01 31
  can0  083   [8]  05 CC 00 00 00 00 00 00
  can0  0B9   [8]  00 04 00 00 00 00 00 00
  can0  2B0   [8]  6C FF 00 07 B6 00 00 00
  can0  220   [8]  FC 83 82 00 00 1A 10 C2
  can0  386   [8]  00 80 00 C0 00 40 00 80
  can0  2B0   [8]  6C FF 00 07 A7 00 00 00
  can0  220   [8]  FE 83 82 00 00 19 10 D5
  can0  093   [8]  05 CC 00 00 00 11 01 31
  can0  073   [8]  05 CC 00 00 00 2C 01 31
  can0  083   [8]  05 CC 00 00 00 0B F2 00
  can0  0B9   [8]  00 04 00 00 00 00 00 00
  can0  2B0   [8]  6C FF 00 07 58 00 00 00
  can0  220   [8]  FD C3 82 00 00 15 10 EE
  can0  386   [8]  00 C0 00 C0 00 40 00 80
  can0  2B0   [8]  6C FF 00 07 49 00 00 00
  can0  220   [8]  FD A3 82 00 00 13 10 FC
  can0  093   [8]  05 CC 00 00 00 00 00 00
  can0  073   [8]  05 CC 00 00 00 2C 01 31
  can0  083   [8]  05 CC 00 00 00 15 18 15
  can0  0B9   [8]  00 04 00 00 00 00 00 00
  can0  2B0   [8]  6C FF 00 07 7A 00 00 00
  can0  220   [8]  FE 83 82 00 00 15 10 01
  can0  386   [8]  00 00 00 00 00 40 00 80
  can0  2B0   [8]  6C FF 00 07 6B 00 00 00
  can0  220   [8]  FD C3 82 00 00 16 10 11
  can0  093   [8]  05 CC 00 00 00 11 01 31
  can0  073   [8]  05 CC 00 00 00 2C 01 31
  can0  083   [8]  05 CC 00 00 00 15 18 15
  can0  0B9   [8]  00 04 00 00 00 00 00 00
  can0  2B0   [8]  6C FF 00 07 1C 00 00 00
  can0  220   [8]  FB C3 82 00 00 18 10 21
  can0  2B0   [8]  6C FF 00 07 0D 00 00 00
  can0  220   [8]  FC A3 82 00 00 1B 10 35
  can0  093   [8]  05 CC 00 00 00 11 01 31
  can0  073   [8]  05 CC 00 00 00 2C 01 31
  can0  083   [8]  05 CC 00 00 00 15 18 15
  can0  0B9   [8]  00 04 00 00 00 00 00 00
  can0  2B0   [8]  6C FF 00 07 3E 00 00 00
  can0  220   [8]  FE A3 82 00 00 1B 10 47
  can0  386   [8]  00 80 00 00 00 40 00 80
  can0  2B0   [8]  6C FF 00 07 2F 00 00 00
  can0  220   [8]  FD 83 82 00 00 1A 10 55
  can0  093   [8]  05 CC 00 00 00 E0 0B 13
  can0  073   [8]  05 CC 00 00 00 F7 EF 40
  can0  083   [8]  05 CC 00 00 00 15 18 15
  can0  0B9   [8]  00 04 00 00 00 00 00 00
  can0  2B0   [8]  6C FF 00 07 D0 00 00 00
  can0  220   [8]  FD 63 82 00 00 1A 10 65
  can0  2B0   [8]  6C FF 00 07 C1 00 00 00
  can0  220   [8]  FF 83 82 00 00 1A 10 77
  can0  093   [8]  05 CC 00 00 00 11 01 31
  can0  073   [8]  05 CC 00 00 00 2C 01 31
  can0  083   [8]  05 CC 00 00 00 0B F2 00
  can0  0B9   [8]  00 04 00 00 00 00 00 00
  can0  2B0   [8]  6C FF 00 07 F2 00 00 00
  can0  220   [8]  FF A3 82 00 00 19 10 84
  can0  2B0   [8]  6C FF 00 07 E3 00 00 00
  can0  220   [8]  FF A3 82 00 00 1A 10 97
  can0  093   [8]  05 CC 00 00 00 11 01 31
  can0  073   [8]  05 CC 00 00 00 2C 01 31
  can0  083   [8]  05 CC 00 00 00 15 18 15
  can0  0B9   [8]  00 04 00 00 00 00 00 00
  can0  2B0   [8]  6C FF 00 07 94 00 00 00
  can0  220   [8]  FF A3 82 00 00 1B 10 A6
  can0  386   [8]  00 40 00 40 00 40 00 80
  can0  2B0   [8]  6B FF 00 07 F5 00 00 00
  can0  220   [8]  FF A3 82 00 00 1B 10 B6
  can0  093   [8]  05 CC 00 00 00 11 01 31
  can0  073   [8]  05 CC 00 00 00 2C 01 31
  can0  083   [8]  05 CC 00 00 00 15 18 15
  can0  0B9   [8]  00 04 00 00 00 00 00 00
  can0  2B0   [8]  6B FF 00 07 C6 00 00 00
  can0  220   [8]  FE A3 82 00 00 19 10 C5
  can0  0D8   [8]  00 00 00 00 00 00 00 00
  can0  2B0   [8]  6B FF 00 07 D7 00 00 00
  can0  220   [8]  FC 83 82 00 00 18 10 D0
  can0  093   [8]  05 CC 00 00 00 11 01 31
  can0  073   [8]  05 CC 00 00 00 AA 08 9F
  can0  083   [8]  05 CC 00 00 00 15 18 15
  can0  0B9   [8]  00 04 00 00 00 00 00 00
  can0  2B0   [8]  6B FF 00 07 28 00 00 00
  can0  220   [8]  FC 63 82 00 00 1C 10 E4
  can0  386   [8]  00 C0 00 40 00 40 00 80
  can0  2B0   [8]  6B FF 00 07 39 00 00 00
  can0  220   [8]  FD 43 82 00 00 1F 10 F8
  can0  093   [8]  05 CC 00 00 00 11 01 31
  can0  073   [8]  05 CC 00 00 00 2C 01 31
  can0  083   [8]  05 CC 00 00 00 15 18 15
  can0  0B9   [8]  00 04 00 00 00 00 00 00
  can0  2B0   [8]  6B FF 00 07 0A 00 00 00
  can0  220   [8]  FE 23 82 00 00 1C 10 06
  can0  386   [8]  00 00 00 80 00 40 00 80
  can0  2B0   [8]  6A FF 00 07 0B 00 00 00
  can0  220   [8]  FE 63 82 00 00 1A 10 14
  can0  093   [8]  05 CC 00 00 00 00 00 00
  can0  073   [8]  05 CC 00 00 00 2C 01 31
  can0  083   [8]  05 CC 00 00 00 82 0A DE
  can0  0B9   [8]  00 04 00 00 00 00 00 00
  can0  2B0   [8]  6C FF 00 07 1C 00 00 00
  can0  220   [8]  FE 83 82 00 00 19 10 25
  can0  386   [8]  00 40 00 80 00 40 00 80
  can0  2B0   [8]  6C FF 00 07 0D 00 00 00
  can0  220   [8]  FD A3 82 00 00 18 10 33
  can0  093   [8]  05 CC 00 00 00 11 01 31
  can0  073   [8]  05 CC 00 00 00 AA 08 9F
  can0  083   [8]  05 CC 00 00 00 01 18 15
  can0  0B9   [8]  00 04 00 00 00 00 00 00
  can0  2B0   [8]  6C FF 00 07 3E 00 00 00
  can0  220   [8]  FC C3 82 00 00 17 10 41
  can0  386   [8]  00 80 00 80 00 40 00 80
  can0  2B0   [8]  6C FF 00 07 2F 00 00 00
  can0  220   [8]  FE A3 82 00 00 16 10 50
  can0  093   [8]  05 CC 00 00 00 11 01 31
  can0  073   [8]  05 CC 00 00 00 2C 01 31
  can0  083   [8]  05 CC 00 00 00 01 18 15
  can0  0B9   [8]  00 04 00 00 00 00 00 00
  can0  2B0   [8]  6C FF 00 07 D0 00 00 00
  can0  220   [8]  FF 83 82 00 00 19 10 64
  can0  2B0   [8]  6C FF 00 07 C1 00 00 00
  can0  220   [8]  FE 83 82 00 00 19 10 75
  can0  093   [8]  05 CC 00 00 00 04 04 01
  can0  073   [8]  05 CC 00 00 00 2C 01 31
  can0  083   [8]  05 CC 00 00 00 01 18 15
  can0  0B9   [8]  00 04 00 00 00 00 00 00
  can0  2B0   [8]  6C FF 00 07 F2 00 00 00
  can0  220   [8]  FD 63 82 00 00 18 10 83
  can0  386   [8]  00 00 00 C0 00 40 00 80
  can0  2B0   [8]  6C FF 00 07 E3 00 00 00
  can0  220   [8]  FC 63 82 00 00 17 10 91
  can0  093   [8]  05 CC 00 00 00 11 01 31
  can0  073   [8]  05 CC 00 00 00 2C 01 31
  can0  083   [8]  05 CC 00 00 00 01 18 15
  can0  0B9   [8]  00 04 00 00 00 00 00 00
  can0  2B0   [8]  6C FF 00 07 94 00 00 00
  can0  220   [8]  FC 63 82 00 00 17 10 A1
  can0  386   [8]  00 40 00 C0 00 40 00 80
  can0  2B0   [8]  6C FF 00 07 85 00 00 00
  can0  220   [8]  FD 83 82 00 00 1A 10 B5
  can0  093   [8]  05 CC 00 00 00 25 2F 82
  can0  073   [8]  05 CC 00 00 00 0A E0 0B
  can0  083   [8]  05 CC 00 00 00 09 82 0A
  can0  0B9   [8]  00 04 00 00 00 00 00 00
  can0  2B0   [8]  6C FF 00 07 B6 00 00 00
  can0  220   [8]  FF C3 82 00 00 1B 10 C6
  can0  386   [8]  00 80 00 C0 00 40 00 80
  can0  2B0   [8]  6C FF 00 07 A7 00 00 00
  can0  220   [8]  FF E3 82 00 00 19 10 D4
  can0  093   [8]  05 CC 00 00 00 11 01 31
  can0  073   [8]  05 CC 00 00 00 2C 01 31
  can0  083   [8]  05 CC 00 00 00 35 18 15
  can0  0B9   [8]  00 04 00 00 00 00 00 00
  can0  2B0   [8]  6C FF 00 07 58 00 00 00
  can0  220   [8]  FE A3 82 00 00 18 10 E2
  can0  386   [8]  00 C0 00 C0 00 40 00 80
  can0  2B0   [8]  6C FF 00 07 49 00 00 00
  can0  220   [8]  FD 83 82 00 00 19 10 F2
  can0  093   [8]  05 CC 00 00 00 11 01 31
  can0  073   [8]  05 CC 00 00 00 2C 01 31
  can0  083   [8]  05 CC 00 00 00 35 18 15
  can0  0B9   [8]  00 04 00 00 00 00 00 00
  can0  2B0   [8]  6C FF 00 07 7A 00 00 00
  can0  220   [8]  FE 83 82 00 00 1A 10 04
  can0  0D8   [8]  00 00 00 00 00 00 00 00
  can0  2B0   [8]  6B FF 00 07 1B 00 00 00
  can0  220   [8]  FE 43 82 00 00 1B 10 17
  can0  093   [8]  05 CC 00 00 00 11 01 31
  can0  073   [8]  05 CC 00 00 00 04 04 01
  can0  083   [8]  05 CC 00 00 00 35 18 15
  can0  0B9   [8]  00 04 00 00 00 00 00 00
  can0  2B0   [8]  6B FF 00 07 6C 00 00 00
  can0  220   [8]  FE 23 82 00 00 19 10 25
  can0  386   [8]  00 40 00 00 00 40 00 80
  can0  2B0   [8]  6C FF 00 07 0D 00 00 00
  can0  220   [8]  FD 43 82 00 00 16 10 31
  can0  093   [8]  05 CC 00 00 00 11 01 31
  can0  073   [8]  05 CC 00 00 00 2C 01 31
  can0  083   [8]  05 CC 00 00 00 35 18 15
  can0  0B9   [8]  00 04 00 00 00 00 00 00
  can0  2B0   [8]  6A FF 00 07 5E 00 00 00
  can0  220   [8]  FE 43 82 00 00 15 10 41
  can0  2B0   [8]  6C FF 00 07 2F 00 00 00
  can0  220   [8]  FE 63 82 00 00 15 10 51
  can0  093   [8]  05 CC 00 00 00 11 01 31
  can0  073   [8]  05 CC 00 00 00 2C 01 31
  can0  083   [8]  05 CC 00 00 00 09 82 0A
  can0  0B9   [8]  00 04 00 00 00 00 00 00
  can0  2B0   [8]  6B FF 00 07 A0 00 00 00
  can0  220   [8]  FD C3 82 00 00 1A 10 65
  can0  2B0   [8]  6B FF 00 07 B1 00 00 00
  can0  220   [8]  FC E3 82 00 00 1E 10 76
  can0  093   [8]  05 CC 00 00 00 00 00 00
  can0  073   [8]  05 CC 00 00 00 2C 01 31
  can0  083   [8]  05 CC 00 00 00 DE 0B F2
  can0  0B9   [8]  00 04 00 00 00 00 00 00
  can0  2B0   [8]  6C FF 00 07 F2 00 00 00
  can0  220   [8]  FC C3 82 00 00 1C 10 84
  can0  2B0   [8]  6C FF 00 07 E3 00 00 00
  can0  220   [8]  FD C3 82 00 00 1C 10 97
  can0  093   [8]  05 CC 00 00 00 11 01 31
  can0  073   [8]  05 CC 00 00 00 0B 89 00
  can0  083   [8]  05 CC 00 00 00 18 18 15
  can0  0B9   [8]  00 04 00 00 00 00 00 00
  can0  2B0   [8]  6C FF 00 07 94 00 00 00
  can0  220   [8]  FF E3 82 00 00 1E 10 AB
  can0  2B0   [8]  6C FF 00 07 85 00 00 00
  can0  220   [8]  FF E3 82 00 00 1D 10 B8
  can0  093   [8]  05 CC 00 00 00 11 01 31
  can0  073   [8]  05 CC 00 00 00 2C 01 31
  can0  083   [8]  05 CC 00 00 00 18 18 15
  can0  0B9   [8]  00 04 00 00 00 00 00 00
  can0  2B0   [8]  6B FF 00 07 C6 00 00 00
  can0  220   [8]  FD C3 82 00 00 1A 10 C5
  can0  2B0   [8]  6B FF 00 07 D7 00 00 00
  can0  220   [8]  FC 83 82 00 00 17 10 D1
  can0  093   [8]  05 CC 00 00 00 04 04 01
  can0  073   [8]  05 CC 00 00 00 2C 01 31
  can0  083   [8]  05 CC 00 00 00 18 18 15
  can0  0B9   [8]  00 04 00 00 00 00 00 00
  can0  2B0   [8]  6C FF 00 07 58 00 00 00
  can0  220   [8]  FE 83 82 00 00 19 10 E5
  can0  2B0   [8]  6B FF 00 07 39 00 00 00
  can0  220   [8]  FF 83 82 00 00 1B 10 F6
  can0  093   [8]  05 CC 00 00 00 11 01 31
  can0  073   [8]  05 CC 00 00 00 2C 01 31
  can0  083   [8]  05 CC 00 00 00 18 18 15
  can0  0B9   [8]  00 04 00 00 00 00 00 00
  can0  2B0   [8]  6C FF 00 07 7A 00 00 00
  can0  220   [8]  FF 83 82 00 00 18 10 05
  can0  2B0   [8]  6C FF 00 07 6B 00 00 00
  can0  220   [8]  FF 63 82 00 00 18 10 15
  can0  093   [8]  05 CC 00 00 00 11 01 31
  can0  073   [8]  05 CC 00 00 00 2C 01 31
  can0  083   [8]  05 CC 00 00 00 0A DE 0B
  can0  0B9   [8]  00 04 00 00 00 00 00 00
  can0  2B0   [8]  6C FF 00 07 1C 00 00 00
  can0  220   [8]  FF 63 82 00 00 18 10 25
  can0  2B0   [8]  6C FF 00 07 0D 00 00 00
  can0  220   [8]  FF 83 82 00 00 18 10 35
  can0  093   [8]  05 CC 00 00 00 A5 08 9F
  can0  073   [8]  05 CC 00 00 00 2C 01 31
  can0  083   [8]  05 CC 00 00 00 15 18 15
  can0  0B9   [8]  00 04 00 00 00 00 00 00
  can0  2B0   [8]  6C FF 00 07 3E 00 00 00
  can0  220   [8]  FD A3 82 00 00 1B 10 44
  can0  0D8   [8]  00 00 00 00 00 00 00 00
  can0  2B0   [8]  6C FF 00 07 2F 00 00 00
  can0  220   [8]  FE C3 82 00 00 18 10 52
  can0  093   [8]  05 CC 00 00 00 11 01 31
  can0  073   [8]  05 CC 00 00 00 2C 01 31
  can0  083   [8]  05 CC 00 00 00 15 18 15
  can0  0B9   [8]  00 04 00 00 00 00 00 00
  can0  2B0   [8]  6C FF 00 07 D0 00 00 00
  can0  220   [8]  FF 63 82 00 00 17 10 62
  can0  2B0   [8]  6C FF 00 07 C1 00 00 00
  can0  220   [8]  FF 23 82 00 00 1A 10 77
  can0  093   [8]  05 CC 00 00 00 11 01 31
  can0  073   [8]  05 CC 00 00 00 00 00 00
  can0  083   [8]  05 CC 00 00 00 15 18 15
  can0  0B9   [8]  00 04 00 00 00 00 00 00
  can0  2B0   [8]  6C FF 00 07 F2 00 00 00
  can0  220   [8]  FE 23 82 00 00 19 10 85
  can0  2B0   [8]  6C FF 00 07 E3 00 00 00
  can0  220   [8]  FF 43 82 00 00 17 10 92
  can0  093   [8]  05 CC 00 00 00 31 08 04
  can0  073   [8]  05 CC 00 00 00 2C 01 31
  can0  083   [8]  05 CC 00 00 00 15 18 15
  can0  0B9   [8]  00 04 00 00 00 00 00 00
  can0  2B0   [8]  6C FF 00 07 94 00 00 00
  can0  220   [8]  FF 83 82 00 00 1A 10 A7
  can0  2B0   [8]  6C FF 00 07 85 00 00 00
  can0  220   [8]  FE A3 82 00 00 1C 10 B6
  can0  093   [8]  05 CC 00 00 00 11 01 31
  can0  073   [8]  05 CC 00 00 00 2C 01 31
  can0  083   [8]  05 CC 00 00 00 0A DE 0B
  can0  0B9   [8]  00 04 00 00 00 00 00 00
  can0  2B0   [8]  6C FF 00 07 B6 00 00 00
  can0  220   [8]  FC A3 82 00 00 1E 10 C6
  can0  2B0   [8]  6C FF 00 07 A7 00 00 00
  can0  220   [8]  FC E3 82 00 00 1F 10 D9
  can0  093   [8]  05 CC 00 00 00 00 00 00
  can0  073   [8]  05 CC 00 00 00 2C 01 31
  can0  083   [8]  05 CC 00 00 00 15 18 15
  can0  0B9   [8]  00 04 00 00 00 00 00 00
  can0  2B0   [8]  6C FF 00 07 58 00 00 00
  can0  220   [8]  FD C3 82 00 00 1F 10 E8
  can0  2B0   [8]  6C FF 00 07 49 00 00 00
  can0  220   [8]  FE 83 82 00 00 1C 10 F6
  can0  093   [8]  05 CC 00 00 00 11 01 31
  can0  073   [8]  05 CC 00 00 00 2C 01 31
  can0  083   [8]  05 CC 00 00 00 15 18 15
  can0  0B9   [8]  00 04 00 00 00 00 00 00
  can0  2B0   [8]  6B FF 00 07 0A 00 00 00
  can0  220   [8]  FE 63 82 00 00 1B 10 07
  can0  2B0   [8]  6B FF 00 07 1B 00 00 00
  can0  220   [8]  FE 83 82 00 00 19 10 15
  can0  093   [8]  05 CC 00 00 00 11 01 31
  can0  073   [8]  05 CC 00 00 00 2C 01 31
  can0  083   [8]  05 CC 00 00 00 15 18 15
  can0  2B0   [8]  6C FF 00 07 1C 00 00 00
  can0  0B9   [8]  00 04 00 00 00 00 00 00
  can0  220   [8]  FE 83 82 00 00 18 10 22
  can0  2B0   [8]  6C FF 00 07 0D 00 00 00
  can0  220   [8]  FD 83 82 00 00 1A 10 35
  can0  093   [8]  05 CC 00 00 00 04 04 01
  can0  073   [8]  05 CC 00 00 00 2C 01 31
  can0  083   [8]  05 CC 00 00 00 15 18 15
  can0  2B0   [8]  6A FF 00 07 5E 00 00 00
  can0  220   [8]  FC 63 82 00 00 1C 10 44
  can0  0B9   [8]  00 04 00 00 00 00 00 00
  can0  2B0   [8]  6A FF 00 07 4F 00 00 00
  can0  220   [8]  FC 63 82 00 00 1E 10 56
  can0  093   [8]  05 CC 00 00 00 11 01 31
  can0  073   [8]  05 CC 00 00 00 2C 01 31
  can0  083   [8]  05 CC 00 00 00 15 01 35
  can0  2B0   [8]  6A FF 00 07 B0 00 00 00
  can0  220   [8]  FD 83 82 00 00 1C 10 67
  can0  0B9   [8]  00 04 00 00 00 00 00 00
  can0  2B0   [8]  6A FF 00 07 A1 00 00 00
  can0  220   [8]  FE 63 82 00 00 18 10 72
  can0  093   [8]  05 CC 00 00 00 11 01 31
  can0  073   [8]  05 CC 00 00 00 2C 01 31
  can0  083   [8]  05 CC 00 00 00 00 18 15
  can0  2B0   [8]  6B FF 00 07 82 00 00 00
  can0  220   [8]  FE 63 82 00 00 18 10 82
  can0  0B9   [8]  00 04 00 00 00 00 00 00
  can0  0D8   [8]  00 00 00 00 00 00 00 00
  can0  2B0   [8]  6B FF 00 07 93 00 00 00
  can0  220   [8]  FE 63 82 00 00 1B 10 97
  can0  093   [8]  05 CC 00 00 00 11 01 31
  can0  073   [8]  05 CC 00 00 00 2C 01 31
  can0  083   [8]  05 CC 00 00 00 00 18 15
  can0  2B0   [8]  6C FF 00 07 94 00 00 00
  can0  220   [8]  FF 83 82 00 00 18 10 A5
  can0  0B9   [8]  00 04 00 00 00 00 00 00
  can0  2B0   [8]  6C FF 00 07 85 00 00 00
  can0  220   [8]  FF 83 82 00 00 15 10 B0
  can0  093   [8]  05 CC 00 00 00 11 01 31
  can0  073   [8]  05 CC 00 00 00 2C 01 31
  can0  083   [8]  05 CC 00 00 00 00 18 15
  can0  2B0   [8]  6C FF 00 07 B6 00 00 00
  can0  220   [8]  FF A3 82 00 00 18 10 C5
  can0  0B9   [8]  00 04 00 00 00 00 00 00
  can0  2B0   [8]  6C FF 00 07 A7 00 00 00
  can0  220   [8]  FF 83 82 00 00 1B 10 D6
  can0  093   [8]  05 CC 00 00 00 11 01 31
  can0  073   [8]  05 CC 00 00 00 00 00 00
  can0  083   [8]  05 CC 00 00 00 00 18 15
  can0  2B0   [8]  6B FF 00 07 28 00 00 00
  can0  220   [8]  FF 63 82 00 00 18 10 E5
  can0  0B9   [8]  00 04 00 00 00 00 00 00
  can0  2B0   [8]  6B FF 00 07 39 00 00 00
  can0  220   [8]  FF 23 82 00 00 16 10 F3
  can0  093   [8]  05 CC 00 00 00 25 2F 82
  can0  073   [8]  05 CC 00 00 00 2C 01 31
  can0  083   [8]  05 CC 00 00 00 15 01 35
  can0  2B0   [8]  6B FF 00 07 0A 00 00 00
  can0  220   [8]  FE 23 82 00 00 18 10 02
  can0  0B9   [8]  00 04 00 00 00 00 00 00
  can0  2B0   [8]  6C FF 00 07 6B 00 00 00
  can0  220   [8]  FE A3 82 00 00 1A 10 14
  can0  093   [8]  05 CC 00 00 00 11 01 31
  can0  073   [8]  05 CC 00 00 00 2C 01 31
  can0  083   [8]  05 CC 00 00 00 02 00 14
  can0  2B0   [8]  6C FF 00 07 1C 00 00 00
  can0  220   [8]  FE C3 82 00 00 1B 10 27
  can0  0B9   [8]  00 04 00 00 00 00 00 00
  can0  2B0   [8]  6C FF 00 07 0D 00 00 00
  can0  220   [8]  FF 83 82 00 00 18 10 35
  can0  093   [8]  05 CC 00 00 00 11 01 31
  can0  073   [8]  05 CC 00 00 00 89 00 00
  can0  083   [8]  05 CC 00 00 00 12 18 15
  can0  2B0   [8]  6C FF 00 07 3E 00 00 00
  can0  220   [8]  FF 63 82 00 00 19 10 44
  can0  0B9   [8]  00 04 00 00 00 00 00 00
  can0  2B0   [8]  6C FF 00 07 2F 00 00 00
  can0  220   [8]  FF 43 82 00 00 1C 10 59
  can0  093   [8]  05 CC 00 00 00 11 01 31
  can0  073   [8]  05 CC 00 00 00 2C 01 31
  can0  083   [8]  05 CC 00 00 00 12 18 15
  can0  2B0   [8]  6C FF 00 07 D0 00 00 00
  can0  220   [8]  FF 63 82 00 00 1C 10 69
  can0  0B9   [8]  00 04 00 00 00 00 00 00
  can0  2B0   [8]  6B FF 00 07 B1 00 00 00
  can0  220   [8]  FE C3 82 00 00 1E 10 78
  can0  093   [8]  05 CC 00 00 00 11 01 31
  can0  073   [8]  05 CC 00 00 00 2C 01 31
  can0  083   [8]  05 CC 00 00 00 12 18 15
  can0  2B0   [8]  6B FF 00 07 82 00 00 00
  can0  220   [8]  FE E3 82 00 00 1D 10 89
  can0  0B9   [8]  00 04 00 00 00 00 00 00
  can0  2B0   [8]  6B FF 00 07 93 00 00 00
  can0  220   [8]  FD A3 82 00 00 1B 10 94
  can0  093   [8]  05 CC 00 00 00 11 01 31
  can0  073   [8]  05 CC 00 00 00 2C 01 31
  can0  083   [8]  05 CC 00 00 00 12 18 15
  can0  2B0   [8]  6B FF 00 07 E4 00 00 00
  can0  220   [8]  FD 63 82 00 00 1B 10 A4
  can0  0B9   [8]  00 04 00 00 00 00 00 00
  can0  2B0   [8]  6B FF 00 07 F5 00 00 00
  can0  220   [8]  FD 43 82 00 00 1A 10 B5
  can0  093   [8]  05 CC 00 00 00 11 01 31
  can0  073   [8]  05 CC 00 00 00 9F 0A E0
  can0  083   [8]  05 CC 00 00 00 00 14 09
  can0  2B0   [8]  6A FF 00 07 D6 00 00 00
  can0  220   [8]  FE 23 82 00 00 1A 10 C4
  can0  0B9   [8]  00 04 00 00 00 00 00 00
  can0  0D8   [8]  00 00 00 00 00 00 00 00
  can0  2B0   [8]  6B FF 00 07 D7 00 00 00
  can0  220   [8]  FF 23 82 00 00 18 10 D5
  can0  093   [8]  05 CC 00 00 00 13 00 00
  can0  073   [8]  05 CC 00 00 00 2C 01 31
  can0  083   [8]  05 CC 00 00 00 03 18 15
  can0  2B0   [8]  6C FF 00 07 58 00 00 00
  can0  220   [8]  FE 23 82 00 00 18 10 E2
  can0  0B9   [8]  00 04 00 00 00 00 00 00
  can0  2B0   [8]  6C FF 00 07 49 00 00 00
  can0  220   [8]  FE 23 82 00 00 1A 10 F4
  can0  093   [8]  05 CC 00 00 00 11 01 31
  can0  073   [8]  05 CC 00 00 00 2C 01 31
  can0  083   [8]  05 CC 00 00 00 03 18 15
  can0  2B0   [8]  6A FF 00 07 1A 00 00 00
  can0  220   [8]  FD 63 82 00 00 1B 10 04
  can0  0B9   [8]  00 04 00 00 00 00 00 00
  can0  2B0   [8]  6B FF 00 07 1B 00 00 00
  can0  220   [8]  FD 83 82 00 00 19 10 12
  can0  093   [8]  05 CC 00 00 00 01 31 08
  can0  073   [8]  05 CC 00 00 00 2C 01 31
  can0  083   [8]  05 CC 00 00 00 03 18 15
  can0  2B0   [8]  6C FF 00 07 1C 00 00 00
  can0  220   [8]  FF 63 82 00 00 1A 10 27
  can0  0B9   [8]  00 04 00 00 00 00 00 00
  can0  2B0   [8]  6C FF 00 07 0D 00 00 00
  can0  220   [8]  FF 63 82 00 00 1A 10 37
  can0  093   [8]  05 CC 00 00 00 11 01 31
  can0  073   [8]  05 CC 00 00 00 F7 EF 40
  can0  083   [8]  05 CC 00 00 00 03 18 15
  can0  2B0   [8]  6B FF 00 07 4E 00 00 00
  can0  220   [8]  FE 43 82 00 00 1B 10 47
  can0  0B9   [8]  00 04 00 00 00 00 00 00
  can0  2B0   [8]  6A FF 00 07 4F 00 00 00
  can0  220   [8]  FE 43 82 00 00 1A 10 54
  can0  093   [8]  05 CC 00 00 00 11 01 31
  can0  073   [8]  05 CC 00 00 00 2C 01 31
  can0  083   [8]  05 CC 00 00 00 00 14 09
  can0  2B0   [8]  6C FF 00 07 D0 00 00 00
  can0  220   [8]  FE 23 82 00 00 19 10 65
  can0  0B9   [8]  00 04 00 00 00 00 00 00
  can0  2B0   [8]  6C FF 00 07 C1 00 00 00
  can0  220   [8]  FE 23 82 00 00 19 10 75
  can0  093   [8]  05 CC 00 00 00 11 01 31
  can0  073   [8]  05 CC 00 00 00 2C 01 31
  can0  083   [8]  05 CC 00 00 00 35 08 03
  can0  2B0   [8]  6C FF 00 07 F2 00 00 00
  can0  220   [8]  FF 23 82 00 00 1A 10 87
  can0  0B9   [8]  00 04 00 00 00 00 00 00
  can0  2B0   [8]  6C FF 00 07 E3 00 00 00
  can0  220   [8]  FE 23 82 00 00 18 10 92
  can0  093   [8]  05 CC 00 00 00 11 01 31
  can0  073   [8]  05 CC 00 00 00 9F 0A E0
  can0  083   [8]  05 CC 00 00 00 CC 18 15
  can0  2B0   [8]  6B FF 00 07 E4 00 00 00
  can0  220   [8]  FD 43 82 00 00 18 10 A3
  can0  0B9   [8]  00 04 00 00 00 00 00 00
  can0  2B0   [8]  6B FF 00 07 F5 00 00 00
  can0  220   [8]  FF A3 82 00 00 1A 10 B7
  can0  093   [8]  05 CC 00 00 00 11 01 31
  can0  073   [8]  05 CC 00 00 00 2C 01 31
  can0  083   [8]  05 CC 00 00 00 CC 18 15
  can0  2B0   [8]  6C FF 00 07 B6 00 00 00
  can0  220   [8]  FE A3 82 00 00 1C 10 C6
  can0  0B9   [8]  00 04 00 00 00 00 00 00
  can0  2B0   [8]  6C FF 00 07 A7 00 00 00
  can0  220   [8]  FE 63 82 00 00 1D 10 D9
  can0  093   [8]  05 CC 00 00 00 A5 08 9F
  can0  073   [8]  05 CC 00 00 00 2C 01 31
  can0  083   [8]  05 CC 00 00 00 CC 18 15
  can0  2B0   [8]  6C FF 00 07 58 00 00 00
  can0  220   [8]  FE 43 82 00 00 1B 10 E7
  can0  0B9   [8]  00 04 00 00 00 00 00 00
  can0  2B0   [8]  6B FF 00 07 39 00 00 00
  can0  220   [8]  FD 83 82 00 00 18 10 F3
  can0  093   [8]  05 CC 00 00 00 11 01 31
  can0  073   [8]  05 CC 00 00 00 2C 01 31
  can0  083   [8]  05 CC 00 00 00 CC 18 15
  can0  2B0   [8]  6C FF 00 07 7A 00 00 00
  can0  220   [8]  FE 63 82 00 00 1A 10 04
  can0  0B9   [8]  00 04 00 00 00 00 00 00
  can0  0D8   [8]  00 00 00 00 00 00 00 00
  can0  2B0   [8]  6C FF 00 07 6B 00 00 00
  can0  220   [8]  FE 43 82 00 00 1C 10 16
  can0  093   [8]  05 CC 00 00 00 11 01 31
  can0  073   [8]  05 CC 00 00 00 2C 01 31
  can0  083   [8]  05 CC 00 00 00 35 08 03
  can0  2B0   [8]  6C FF 00 07 1C 00 00 00
  can0  220   [8]  FE 43 82 00 00 1C 10 26
  can0  0B9   [8]  00 04 00 00 00 00 00 00
  can0  2B0   [8]  6A FF 00 07 6D 00 00 00
  can0  220   [8]  FF 83 82 00 00 1A 10 37
  can0  093   [8]  05 CC 00 00 00 11 01 31
  can0  073   [8]  05 CC 00 00 00 2C 01 31
  can0  083   [8]  05 CC 00 00 00 CC 18 15
  can0  2B0   [8]  6B FF 00 07 4E 00 00 00
  can0  220   [8]  FF 83 82 00 00 19 10 44
  can0  0B9   [8]  00 04 00 00 00 00 00 00
  can0  2B0   [8]  6C FF 00 07 2F 00 00 00
  can0  220   [8]  FF 63 82 00 00 1C 10 59
  can0  093   [8]  05 CC 00 00 00 11 01 31
  can0  073   [8]  05 CC 00 00 00 2C 01 31
  can0  083   [8]  05 CC 00 00 00 CC 18 15
  can0  2B0   [8]  6C FF 00 07 D0 00 00 00
  can0  220   [8]  FF 83 82 00 00 1C 10 69
  can0  0B9   [8]  00 04 00 00 00 00 00 00
  can0  2B0   [8]  6C FF 00 07 C1 00 00 00
  can0  220   [8]  FF 83 82 00 00 1E 10 7B
  can0  093   [8]  05 CC 00 00 00 E0 0B 13
  can0  073   [8]  05 CC 00 00 00 EF 40 AA
  can0  083   [8]  05 CC 00 00 00 CC 18 15
  can0  2B0   [8]  6C FF 00 07 F2 00 00 00
  can0  220   [8]  FE 43 82 00 00 1D 10 89
  can0  0B9   [8]  00 04 00 00 00 00 00 00
  can0  2B0   [8]  6C FF 00 07 E3 00 00 00
  can0  220   [8]  FD 43 82 00 00 1A 10 95
  can0  093   [8]  05 CC 00 00 00 11 01 31
  can0  073   [8]  05 CC 00 00 00 2C 01 31
  can0  083   [8]  05 CC 00 00 00 CC 18 15
  can0  2B0   [8]  6B FF 00 07 E4 00 00 00
  can0  220   [8]  FC 63 82 00 00 1B 10 A5
  can0  0B9   [8]  00 04 00 00 00 00 00 00
  can0  2B0   [8]  6C FF 00 07 85 00 00 00
  can0  220   [8]  FD 63 82 00 00 1C 10 B7
  can0  093   [8]  05 CC 00 00 00 11 01 31
  can0  073   [8]  05 CC 00 00 00 2C 01 31
  can0  083   [8]  05 CC 00 00 00 35 08 03
  can0  2B0   [8]  6C FF 00 07 B6 00 00 00
  can0  220   [8]  FD 83 82 00 00 19 10 C2
  can0  0B9   [8]  00 04 00 00 00 00 00 00
  can0  2B0   [8]  6B FF 00 07 D7 00 00 00
  can0  220   [8]  FD 63 82 00 00 18 10 D3
  can0  093   [8]  05 CC 00 00 00 11 01 31
  can0  073   [8]  05 CC 00 00 00 2C 01 31
  can0  083   [8]  05 CC 00 00 00 CC 18 15
  can0  2B0   [8]  6A FF 00 07 38 00 00 00
  can0  220   [8]  FC 63 82 00 00 1B 10 E5
  can0  0B9   [8]  00 04 00 00 00 00 00 00
  can0  2B0   [8]  6B FF 00 07 39 00 00 00
  can0  220   [8]  FB 83 82 00 00 1B 10 F2
  can0  093   [8]  05 CC 00 00 00 11 01 31
  can0  073   [8]  05 CC 00 00 00 40 AA 08
  can0  083   [8]  05 CC 00 00 00 CC 18 15
  can0  2B0   [8]  6C FF 00 07 7A 00 00 00
  can0  220   [8]  FC 83 82 00 00 1A 10 02
  can0  0B9   [8]  00 04 00 00 00 00 00 00
  can0  2B0   [8]  6C FF 00 07 6B 00 00 00
  can0  220   [8]  FE 63 82 00 00 19 10 15
  can0  093   [8]  05 CC 00 00 00 11 01 31
  can0  073   [8]  05 CC 00 00 00 2C 01 31
  can0  083   [8]  05 CC 00 00 00 CC 18 15
  can0  2B0   [8]  6A FF 00 07 7C 00 00 00
  can0  220   [8]  FF 83 82 00 00 18 10 25
  can0  0B9   [8]  00 04 00 00 00 00 00 00
  can0  2B0   [8]  6B FF 00 07 7D 00 00 00
  can0  220   [8]  FE 83 82 00 00 17 10 33
  can0  093   [8]  05 CC 00 00 00 11 01 31
  can0  073   [8]  05 CC 00 00 00 2C 01 31
  can0  083   [8]  05 CC 00 00 00 CC 18 15
  can0  2B0   [8]  6C FF 00 07 3E 00 00 00
  can0  220   [8]  FD 83 82 00 00 18 10 43
  can0  0B9   [8]  00 04 00 00 00 00 00 00
  can0  0D8   [8]  00 00 00 00 00 00 00 00
  can0  2B0   [8]  6C FF 00 07 2F 00 00 00
  can0  220   [8]  FE A3 82 00 00 19 10 55
  can0  093   [8]  05 CC 00 00 00 11 01 31
  can0  073   [8]  05 CC 00 00 00 2C 01 31
  can0  083   [8]  05 CC 00 00 00 00 00 00
  can0  2B0   [8]  6A FF 00 07 B0 00 00 00
  can0  220   [8]  FF E3 82 00 00 1A 10 67
  can0  0B9   [8]  00 04 00 00 00 00 00 00
  can0  2B0   [8]  6C FF 00 07 C1 00 00 00
  can0  220   [8]  FF C3 82 00 00 1A 10 77
  can0  093   [8]  05 CC 00 00 00 11 01 31
  can0  073   [8]  05 CC 00 00 00 2C 01 31
  can0  083   [8]  05 CC 00 00 00 05 18 15
  can0  2B0   [8]  6C FF 00 07 F2 00 00 00
  can0  220   [8]  FF 83 82 00 00 18 10 85
  can0  386   [8]  00 00 00 40 00 40 00 80
  can0  0B9   [8]  00 04 00 00 00 00 00 00
  can0  2B0   [8]  6C FF 00 07 E3 00 00 00
  can0  220   [8]  FF 63 82 00 00 18 10 95
  can0  093   [8]  05 CC 00 00 00 11 01 31
  can0  073   [8]  05 CC 00 00 00 2C 01 31
  can0  083   [8]  05 CC 00 00 00 05 18 15
  can0  2B0   [8]  6C FF 00 07 94 00 00 00
  can0  220   [8]  FE 43 82 00 00 1B 10 A7
  can0  386   [8]  00 40 00 40 00 40 00 80
  can0  0B9   [8]  00 04 00 00 00 00 00 00
  can0  2B0   [8]  6B FF 00 07 F5 00 00 00
  can0  220   [8]  FF 23 82 00 00 1F 10 BA
  can0  093   [8]  05 CC 00 00 00 11 01 31
  can0  073   [8]  05 CC 00 00 00 2C 01 31
  can0  083   [8]  05 CC 00 00 00 05 18 15
  can0  2B0   [8]  6C FF 00 07 B6 00 00 00
  can0  220   [8]  FF 43 82 00 00 1F 10 CA
  can0  0B9   [8]  00 04 00 00 00 00 00 00
  can0  2B0   [8]  6C FF 00 07 A7 00 00 00
  can0  220   [8]  FC 63 82 00 00 1B 10 D5
  can0  093   [8]  05 CC 00 00 00 01 31 08
  can0  073   [8]  05 CC 00 00 00 08 9F 0A
  can0  083   [8]  05 CC 00 00 00 05 18 15
  can0  2B0   [8]  6B FF 00 07 28 00 00 00
  can0  220   [8]  FE 43 82 00 00 1B 10 E7
  can0  0B9   [8]  00 04 00 00 00 00 00 00
  can0  2B0   [8]  6A FF 00 07 29 00 00 00
  can0  220   [8]  FF 23 82 00 00 1B 10 F6
  can0  093   [8]  05 CC 00 00 00 11 01 31
  can0  073   [8]  05 CC 00 00 00 2C 01 31
  can0  083   [8]  05 CC 00 00 00 00 00 00
  can0  2B0   [8]  6C FF 00 07 7A 00 00 00
  can0  220   [8]  FE 43 82 00 00 18 10 02
  can0  0B9   [8]  00 04 00 00 00 00 00 00
  can0  2B0   [8]  6C FF 00 07 6B 00 00 00
  can0  220   [8]  FD 63 82 00 00 1A 10 15
  can0  093   [8]  05 CC 00 00 00 11 01 31
  can0  073   [8]  05 CC 00 00 00 2C 01 31
  can0  083   [8]  05 CC 00 00 00 00 00 00
  can0  2B0   [8]  6C FF 00 07 1C 00 00 00
  can0  220   [8]  FF 63 82 00 00 1C 10 29
  can0  0B9   [8]  00 04 00 00 00 00 00 00
  can0  2B0   [8]  6A FF 00 07 6D 00 00 00
  can0  220   [8]  FF 43 82 00 00 19 10 34
  can0  093   [8]  05 CC 00 00 00 00 00 00
  can0  073   [8]  05 CC 00 00 00 04 04 01
  can0  083   [8]  05 CC 00 00 00 00 18 15
  can0  2B0   [8]  6B FF 00 07 4E 00 00 00
  can0  220   [8]  FF 63 82 00 00 19 10 44
  can0  0B9   [8]  00 04 00 00 00 00 00 00
  can0  2B0   [8]  6C FF 00 07 2F 00 00 00
  can0  220   [8]  FF 83 82 00 00 19 10 54
  can0  093   [8]  05 CC 00 00 00 11 01 31
  can0  073   [8]  05 CC 00 00 00 2C 01 31
  can0  083   [8]  05 CC 00 00 00 00 18 15
  can0  2B0   [8]  6B FF 00 07 A0 00 00 00
  can0  220   [8]  FF 83 82 00 00 1B 10 66
  can0  0B9   [8]  00 04 00 00 00 00 00 00
  can0  2B0   [8]  6B FF 00 07 B1 00 00 00
  can0  220   [8]  FF A3 82 00 00 1A 10 77
  can0  093   [8]  05 CC 00 00 00 11 01 31
  can0  073   [8]  05 CC 00 00 00 2C 01 31
  can0  083   [8]  05 CC 00 00 00 00 18 15
  can0  2B0   [8]  6C FF 00 07 F2 00 00 00
  can0  220   [8]  FE A3 82 00 00 1C 10 86
  can0  0B9   [8]  00 04 00 00 00 00 00 00
  can0  0D8   [8]  00 00 00 00 00 00 00 00
  can0  2B0   [8]  6C FF 00 07 E3 00 00 00
  can0  220   [8]  FD A3 82 00 00 1D 10 96
  can0  093   [8]  05 CC 00 00 00 08 9F 0A
  can0  073   [8]  05 CC 00 00 00 2C 01 31
  can0  083   [8]  05 CC 00 00 00 00 18 15
  can0  2B0   [8]  6C FF 00 07 94 00 00 00
  can0  220   [8]  FE A3 82 00 00 1B 10 A7
  can0  0B9   [8]  00 04 00 00 00 00 00 00
  can0  2B0   [8]  6C FF 00 07 85 00 00 00
  can0  220   [8]  FE 83 82 00 00 1C 10 B6
  can0  093   [8]  05 CC 00 00 00 11 01 31
  can0  073   [8]  05 CC 00 00 00 31 08 04
  can0  083   [8]  05 CC 00 00 00 00 00 00
  can0  2B0   [8]  6B FF 00 07 C6 00 00 00
  can0  220   [8]  FE 23 82 00 00 1B 10 C7
  can0  0B9   [8]  00 04 00 00 00 00 00 00
  can0  2B0   [8]  6B FF 00 07 D7 00 00 00
  can0  220   [8]  FE 43 82 00 00 18 10 D2
  can0  093   [8]  05 CC 00 00 00 2F 82 A5
  can0  073   [8]  05 CC 00 00 00 2C 01 31
  can0  083   [8]  05 CC 00 00 00 60 18 15
  can0  2B0   [8]  6C FF 00 07 58 00 00 00
  can0  220   [8]  FD 83 82 00 00 16 10 E1
  can0  0B9   [8]  00 04 00 00 00 00 00 00
  can0  2B0   [8]  6C FF 00 07 49 00 00 00
  can0  220   [8]  FC A3 82 00 00 15 10 FF
  can0  093   [8]  05 CC 00 00 00 11 01 31
  can0  073   [8]  05 CC 00 00 00 2C 01 31
  can0  083   [8]  05 CC 00 00 00 60 18 15
  can0  2B0   [8]  6C FF 00 07 7A 00 00 00
  can0  220   [8]  FC 83 82 00 00 17 10 01
  can0  386   [8]  00 00 00 00 00 40 00 80
  can0  0B9   [8]  00 04 00 00 00 00 00 00
  can0  2B0   [8]  6A FF 00 07 0B 00 00 00
  can0  220   [8]  FD 83 82 00 00 17 10 10
  can0  093   [8]  05 CC 00 00 00 11 01 31
  can0  073   [8]  05 CC 00 00 00 2C 01 31
  can0  083   [8]  05 CC 00 00 00 60 18 15
  can0  2B0   [8]  6B FF 00 07 6C 00 00 00
  can0  220   [8]  FE A3 82 00 00 17 10 23
  can0  0B9   [8]  00 04 00 00 00 00 00 00
  can0  2B0   [8]  6C FF 00 07 0D 00 00 00
  can0  220   [8]  FE 83 82 00 00 19 10 35
  can0  093   [8]  05 CC 00 00 00 11 01 31
  can0  073   [8]  05 CC 00 00 00 00 00 00
  can0  083   [8]  05 CC 00 00 00 60 18 15
  can0  2B0   [8]  6C FF 00 07 3E 00 00 00
  can0  220   [8]  FD 43 82 00 00 17 10 40
  can0  386   [8]  00 80 00 00 00 40 00 80
  can0  0B9   [8]  00 04 00 00 00 00 00 00
  can0  2B0   [8]  6B FF 00 07 5F 00 00 00
  can0  220   [8]  FC 23 82 00 00 19 10 53
  can0  093   [8]  05 CC 00 00 00 11 01 31
  can0  073   [8]  05 CC 00 00 00 2C 01 31
  can0  083   [8]  05 CC 00 00 00 00 00 00
  can0  2B0   [8]  6B FF 00 07 A0 00 00 00
  can0  220   [8]  FB 23 82 00 00 1C 10 65
  can0  0B9   [8]  00 04 00 00 00 00 00 00
  can0  2B0   [8]  6C FF 00 07 C1 00 00 00
  can0  220   [8]  FC 43 82 00 00 19 10 73
  can0  093   [8]  05 CC 00 00 00 11 01 31
  can0  073   [8]  05 CC 00 00 00 2C 01 31
  can0  083   [8]  05 CC 00 00 00 60 18 15
  can0  2B0   [8]  6C FF 00 07 F2 00 00 00
  can0  220   [8]  FE 43 82 00 00 19 10 85
  can0  0B9   [8]  00 04 00 00 00 00 00 00
  can0  2B0   [8]  6B FF 00 07 93 00 00 00
  can0  220   [8]  FF 43 82 00 00 1D 10 98
  can0  093   [8]  05 CC 00 00 00 31 08 04
  can0  073   [8]  05 CC 00 00 00 89 00 00
  can0  083   [8]  05 CC 00 00 00 60 18 15
  can0  2B0   [8]  6C FF 00 07 94 00 00 00
  can0  220   [8]  FF 83 82 00 00 1C 10 A9
  can0  0B9   [8]  00 04 00 00 00 00 00 00
  can0  2B0   [8]  6C FF 00 07 85 00 00 00
  can0  220   [8]  FF 83 82 00 00 1C 10 B9
  can0  093   [8]  05 CC 00 00 00 11 01 31
  can0  073   [8]  05 CC 00 00 00 2C 01 31
  can0  083   [8]  05 CC 00 00 00 60 18 15
  can0  2B0   [8]  6A FF 00 07 D6 00 00 00
  can0  220   [8]  FE A3 82 00 00 1B 10 C7
  can0  0B9   [8]  00 04 00 00 00 00 00 00
  can0  0D8   [8]  00 00 00 00 00 00 00 00
  can0  2B0   [8]  6B FF 00 07 D7 00 00 00
  can0  220   [8]  FF A3 82 00 00 19 10 D4
  can0  093   [8]  05 CC 00 00 00 00 00 00
  can0  073   [8]  05 CC 00 00 00 2C 01 31
  can0  083   [8]  05 CC 00 00 00 60 18 15
  can0  2B0   [8]  6C FF 00 07 58 00 00 00
  can0  220   [8]  FF 83 82 00 00 1C 10 E9
  can0  386   [8]  00 C0 00 40 00 40 00 80
  can0  0B9   [8]  00 04 00 00 00 00 00 00
  can0  2B0   [8]  6C FF 00 07 49 00 00 00
  can0  220   [8]  FD 43 82 00 00 1A 10 F5
  can0  093   [8]  05 CC 00 00 00 11 01 31
  can0  073   [8]  05 CC 00 00 00 2C 01 31
  can0  083   [8]  05 CC 00 00 00 00 14 09
  can0  2B0   [8]  6C FF 00 07 7A 00 00 00
  can0  220   [8]  FB 03 82 00 00 19 10 00
  can0  0B9   [8]  00 04 00 00 00 00 00 00
  can0  2B0   [8]  6A FF 00 07 0B 00 00 00
  can0  220   [8]  FC 43 82 00 00 17 10 11
  can0  093   [8]  05 CC 00 00 00 11 01 31
  can0  073   [8]  05 CC 00 00 00 2C 01 31
  can0  083   [8]  05 CC 00 00 00 03 18 15
  can0  2B0   [8]  6C FF 00 07 1C 00 00 00
  can0  220   [8]  FD A3 82 00 00 18 10 23
  can0  386   [8]  00 40 00 80 00 40 00 80
  can0  0B9   [8]  00 04 00 00 00 00 00 00
  can0  2B0   [8]  6C FF 00 07 0D 00 00 00
  can0  220   [8]  FD C3 82 00 00 1B 10 34
  can0  093   [8]  05 CC 00 00 00 0A E0 0B
  can0  073   [8]  05 CC 00 00 00 2C 01 31
  can0  083   [8]  05 CC 00 00 00 03 18 15
  can0  2B0   [8]  6B FF 00 07 4E 00 00 00
  can0  220   [8]  FD A3 82 00 00 1C 10 47
  can0  386   [8]  00 80 00 80 00 40 00 80
  can0  0B9   [8]  00 04 00 00 00 00 00 00
  can0  2B0   [8]  6B FF 00 07 5F 00 00 00
  can0  220   [8]  FE A3 82 00 00 1B 10 57
  can0  093   [8]  05 CC 00 00 00 11 01 31
  can0  073   [8]  05 CC 00 00 00 2C 01 31
  can0  083   [8]  05 CC 00 00 00 03 18 15
  can0  2B0   [8]  6C FF 00 07 D0 00 00 00
  can0  220   [8]  FE A3 82 00 00 19 10 65
  can0  0B9   [8]  00 04 00 00 00 00 00 00
  can0  2B0   [8]  6C FF 00 07 C1 00 00 00
  can0  220   [8]  FD C3 82 00 00 17 10 70
  can0  093   [8]  05 CC 00 00 00 25 2F 82
  can0  073   [8]  05 CC 00 00 00 2C 01 31
  can0  083   [8]  05 CC 00 00 00 03 18 15
  can0  2B0   [8]  6B FF 00 07 82 00 00 00
  can0  220   [8]  FF E3 82 00 00 1A 10 87
  can0  386   [8]  00 00 00 C0 00 40 00 80
  can0  0B9   [8]  00 04 00 00 00 00 00 00
  can0  2B0   [8]  6B FF 00 07 93 00 00 00
  can0  220   [8]  FF A3 82 00 00 1D 10 98
  can0  093   [8]  05 CC 00 00 00 11 01 31
  can0  073   [8]  05 CC 00 00 00 31 08 04
  can0  083   [8]  05 CC 00 00 00 00 14 09
  can0  2B0   [8]  6C FF 00 07 94 00 00 00
  can0  220   [8]  FE 83 82 00 00 1B 10 A7
  can0  0B9   [8]  00 04 00 00 00 00 00 00
  can0  2B0   [8]  6C FF 00 07 85 00 00 00
  can0  220   [8]  FC A3 82 00 00 17 10 B1
  can0  093   [8]  05 CC 00 00 00 11 01 31
  can0  073   [8]  05 CC 00 00 00 2C 01 31
  can0  083   [8]  05 CC 00 00 00 03 18 15
  can0  2B0   [8]  6C FF 00 07 B6 00 00 00
  can0  220   [8]  FB C3 82 00 00 19 10 C0
  can0  386   [8]  00 80 00 C0 00 40 00 80
  can0  0B9   [8]  00 04 00 00 00 00 00 00
  can0  2B0   [8]  6B FF 00 07 D7 00 00 00
  can0  220   [8]  FD E3 82 00 00 1C 10 D7
  can0  093   [8]  05 CC 00 00 00 0A E0 0B
  can0  073   [8]  05 CC 00 00 00 2C 01 31
  can0  083   [8]  05 CC 00 00 00 03 18 15
  can0  2B0   [8]  6C FF 00 07 58 00 00 00
  can0  220   [8]  FE C3 82 00 00 18 10 E2
  can0  386   [8]  00 C0 00 C0 00 40 00 80
  can0  0B9   [8]  00 04 00 00 00 00 00 00
  can0  2B0   [8]  6C FF 00 07 49 00 00 00
  can0  220   [8]  FE 83 82 00 00 16 10 F0
  can0  093   [8]  05 CC 00 00 00 11 01 31
  can0  073   [8]  05 CC 00 00 00 00 00 00
  can0  083   [8]  05 CC 00 00 00 03 18 15
  can0  2B0   [8]  6A FF 00 07 1A 00 00 00
  can0  220   [8]  FF 63 82 00 00 15 10 00
  can0  0B9   [8]  00 04 00 00 00 00 00 00
  can0  2B0   [8]  6C FF 00 07 6B 00 00 00
  can0  0D8   [8]  00 00 00 00 00 00 00 00
  can0  220   [8]  FE 43 82 00 00 16 10 10
  can0  093   [8]  05 CC 00 00 00 11 01 31
  can0  073   [8]  05 CC 00 00 00 2C 01 31
  can0  083   [8]  05 CC 00 00 00 03 18 15
  can0  2B0   [8]  6C FF 00 07 1C 00 00 00
  can0  220   [8]  FD 43 82 00 00 1A 10 25
  can0  386   [8]  00 40 00 00 00 40 00 80
  can0  0B9   [8]  00 04 00 00 00 00 00 00
  can0  2B0   [8]  6B FF 00 07 7D 00 00 00
  can0  220   [8]  FD 63 82 00 00 1B 10 34
  can0  093   [8]  05 CC 00 00 00 00 00 00
  can0  073   [8]  05 CC 00 00 00 2C 01 31
  can0  083   [8]  05 CC 00 00 00 00 14 09
  can0  2B0   [8]  6B FF 00 07 4E 00 00 00
  can0  220   [8]  FF 83 82 00 00 1A 10 47
  can0  386   [8]  00 80 00 00 00 40 00 80
  can0  0B9   [8]  00 04 00 00 00 00 00 00
  can0  2B0   [8]  6C FF 00 07 2F 00 00 00
  can0  220   [8]  FF A3 82 00 00 18 10 55
  can0  093   [8]  05 CC 00 00 00 11 01 31
  can0  073   [8]  05 CC 00 00 00 2C 01 31
  can0  083   [8]  05 CC 00 00 00 09 82 0A
  can0  2B0   [8]  6C FF 00 07 D0 00 00 00
  can0  220   [8]  FE A3 82 00 00 15 10 61
  can0  386   [8]  00 C0 00 00 00 40 00 80
  can0  0B9   [8]  00 04 00 00 00 00 00 00
  can0  2B0   [8]  6B FF 00 07 B1 00 00 00
  can0  220   [8]  FE 43 82 00 00 17 10 73
  can0  093   [8]  05 CC 00 00 00 11 01 31
  can0  073   [8]  05 CC 00 00 00 2C 01 31
  can0  083   [8]  05 CC 00 00 00 35 18 15
  can0  2B0   [8]  6B FF 00 07 82 00 00 00
  can0  220   [8]  FF 03 82 00 00 1B 10 86
  can0  386   [8]  00 00 00 40 00 40 00 80
  can0  0B9   [8]  00 04 00 00 00 00 00 00
  can0  2B0   [8]  6C FF 00 07 E3 00 00 00
  can0  220   [8]  FF 63 82 00 00 1C 10 99
  can0  093   [8]  05 CC 00 00 00 9F 0A E0
  can0  073   [8]  05 CC 00 00 00 2C 01 31
  can0  083   [8]  05 CC 00 00 00 35 18 15
  can0  2B0   [8]  6C FF 00 07 94 00 00 00
  can0  220   [8]  FF A3 82 00 00 1A 10 A7
  can0  386   [8]  00 40 00 40 00 40 00 80
  can0  0B9   [8]  00 04 00 00 00 00 00 00
  can0  2B0   [8]  6C FF 00 07 85 00 00 00
  can0  220   [8]  FF A3 82 00 00 18 10 B5
  can0  093   [8]  05 CC 00 00 00 11 01 31
  can0  073   [8]  05 CC 00 00 00 2C 01 31
  can0  083   [8]  05 CC 00 00 00 35 18 15
  can0  2B0   [8]  6B FF 00 07 C6 00 00 00
  can0  220   [8]  FF A3 82 00 00 19 10 C4
  can0  386   [8]  00 80 00 40 00 40 00 80
  can0  0B9   [8]  00 04 00 00 00 00 00 00
  can0  2B0   [8]  6B FF 00 07 D7 00 00 00
  can0  220   [8]  FF 83 82 00 00 17 10 D2
  can0  093   [8]  05 CC 00 00 00 25 2F 82
  can0  073   [8]  05 CC 00 00 00 E0 0B 89
  can0  083   [8]  05 CC 00 00 00 35 18 15
  can0  2B0   [8]  6C FF 00 07 58 00 00 00
  can0  220   [8]  FF 63 82 00 00 14 10 E1
  can0  386   [8]  00 C0 00 40 00 40 00 80
  can0  0B9   [8]  00 04 00 00 00 00 00 00
  can0  2B0   [8]  6C FF 00 07 49 00 00 00
  can0  220   [8]  FF 63 82 00 00 15 10 F0
  can0  093   [8]  05 CC 00 00 00 11 01 31
  can0  073   [8]  05 CC 00 00 00 2C 01 31
  can0  083   [8]  05 CC 00 00 00 09 82 0A
  can0  2B0   [8]  6C FF 00 07 7A 00 00 00
  can0  220   [8]  FF 83 82 00 00 17 10 02
  can0  386   [8]  00 00 00 80 00 40 00 80
  can0  0B9   [8]  00 04 00 00 00 00 00 00
  can0  2B0   [8]  6B FF 00 07 1B 00 00 00
  can0  220   [8]  FE A3 82 00 00 1B 10 17
  can0  093   [8]  05 CC 00 00 00 11 01 31
  can0  073   [8]  05 CC 00 00 00 2C 01 31
  can0  083   [8]  05 CC 00 00 00 35 18 15
  can0  2B0   [8]  6B FF 00 07 6C 00 00 00
  can0  220   [8]  FD 83 82 00 00 1C 10 27
  can0  386   [8]  00 40 00 80 00 40 00 80
  can0  0B9   [8]  00 04 00 00 00 00 00 00
  can0  2B0   [8]  6A FF 00 07 6D 00 00 00
  can0  220   [8]  FF 63 82 00 00 1D 10 38
  can0  093   [8]  05 CC 00 00 00 11 01 31
  can0  073   [8]  05 CC 00 00 00 2C 01 31
  can0  083   [8]  05 CC 00 00 00 35 18 15
  can0  2B0   [8]  6B FF 00 07 4E 00 00 00
  can0  220   [8]  FF A3 82 00 00 1B 10 46
  can0  0B9   [8]  00 04 00 00 00 00 00 00
  can0  2B0   [8]  6C FF 00 07 2F 00 00 00
  can0  0D8   [8]  00 00 00 00 00 00 00 00
  can0  220   [8]  FF E3 82 00 00 18 10 55
  can0  093   [8]  05 CC 00 00 00 11 01 31
  can0  073   [8]  05 CC 00 00 00 04 04 01
  can0  083   [8]  05 CC 00 00 00 35 18 15
  can0  2B0   [8]  6C FF 00 07 D0 00 00 00
  can0  220   [8]  FE C3 82 00 00 1A 10 64
  can0  386   [8]  00 C0 00 80 00 40 00 80
  can0  2B0   [8]  6C FF 00 07 C1 00 00 00
  can0  0B9   [8]  00 04 00 00 00 00 00 00
  can0  220   [8]  FF C3 82 00 00 1A 10 77
  can0  093   [8]  05 CC 00 00 00 11 01 31
  can0  073   [8]  05 CC 00 00 00 2C 01 31
  can0  083   [8]  05 CC 00 00 00 35 18 15
  can0  2B0   [8]  6B FF 00 07 82 00 00 00
  can0  220   [8]  FF A3 82 00 00 19 10 84
  can0  386   [8]  00 00 00 C0 00 40 00 80
  can0  2B0   [8]  6A FF 00 07 83 00 00 00
  can0  220   [8]  FF 83 82 00 00 17 10 92
  can0  0B9   [8]  00 04 00 00 00 00 00 00
  can0  093   [8]  05 CC 00 00 00 11 01 31
  can0  073   [8]  05 CC 00 00 00 2C 01 31
  can0  083   [8]  05 CC 00 00 00 09 82 0A
  can0  2B0   [8]  6C FF 00 07 94 00 00 00
  can0  220   [8]  FF 83 82 00 00 16 10 A3
  can0  2B0   [8]  6C FF 00 07 85 00 00 00
  can0  220   [8]  FF 83 82 00 00 19 10 B4
  can0  0B9   [8]  00 04 00 00 00 00 00 00
  can0  093   [8]  05 CC 00 00 00 11 01 31
  can0  073   [8]  05 CC 00 00 00 2C 01 31
  can0  083   [8]  05 CC 00 00 00 35 18 15
  can0  2B0   [8]  6C FF 00 07 B6 00 00 00
  can0  220   [8]  FF A3 82 00 00 1B 10 C6
  can0  386   [8]  00 80 00 C0 00 40 00 80
  can0  2B0   [8]  6B FF 00 07 D7 00 00 00
  can0  220   [8]  FF A3 82 00 00 1C 10 D9
  can0  0B9   [8]  00 04 00 00 00 00 00 00
  can0  093   [8]  05 CC 00 00 00 11 01 31
  can0  073   [8]  05 CC 00 00 00 2C 01 31
  can0  083   [8]  05 CC 00 00 00 35 18 15
  can0  2B0   [8]  6B FF 00 07 28 00 00 00
  can0  220   [8]  FE 63 82 00 00 1B 10 E7
  can0  386   [8]  00 C0 00 C0 00 40 00 80
  can0  2B0   [8]  6A FF 00 07 29 00 00 00
  can0  220   [8]  FD 43 82 00 00 19 10 F2
  can0  0B9   [8]  00 04 00 00 00 00 00 00
  can0  093   [8]  05 CC 00 00 00 11 01 31
  can0  073   [8]  05 CC 00 00 00 2C 01 31
  can0  083   [8]  05 CC 00 00 00 35 18 15
  can0  2B0   [8]  6B FF 00 07 0A 00 00 00
  can0  220   [8]  FB 63 82 00 00 1A 10 03
  can0  386   [8]  00 00 00 00 00 40 00 80
  can0  2B0   [8]  6C FF 00 07 6B 00 00 00
  can0  220   [8]  FC C3 82 00 00 1C 10 14
  can0  0B9   [8]  00 04 00 00 00 00 00 00
  can0  093   [8]  05 CC 00 00 00 11 01 31
  can0  073   [8]  05 CC 00 00 00 2C 01 31
  can0  083   [8]  05 CC 00 00 00 35 18 15
  can0  2B0   [8]  6C FF 00 07 1C 00 00 00
  can0  220   [8]  FD C3 82 00 00 19 10 22
  can0  386   [8]  00 40 00 00 00 40 00 80
  can0  2B0   [8]  6C FF 00 07 0D 00 00 00
  can0  220   [8]  FD 83 82 00 00 1A 10 35
  can0  0B9   [8]  00 04 00 00 00 00 00 00
  can0  093   [8]  05 CC 00 00 00 25 2F 82
  can0  073   [8]  05 CC 00 00 00 AA 08 9F
  can0  083   [8]  05 CC 00 00 00 35 18 15
  can0  2B0   [8]  6C FF 00 07 3E 00 00 00
  can0  220   [8]  FD 83 82 00 00 1C 10 47
  can0  386   [8]  00 80 00 00 00 40 00 80
  can0  2B0   [8]  6A FF 00 07 4F 00 00 00
  can0  220   [8]  FD 63 82 00 00 1A 10 55
  can0  093   [8]  05 CC 00 00 00 11 01 31
  can0  0B9   [8]  00 04 00 00 00 00 00 00
  can0  073   [8]  05 CC 00 00 00 2C 01 31
  can0  083   [8]  05 CC 00 00 00 35 18 15
  can0  2B0   [8]  6B FF 00 07 A0 00 00 00
  can0  220   [8]  FE 63 82 00 00 19 10 65
  can0  386   [8]  00 C0 00 00 00 40 00 80
  can0  2B0   [8]  6C FF 00 07 C1 00 00 00
  can0  220   [8]  FF 63 82 00 00 1A 10 77
  can0  093   [8]  05 CC 00 00 00 11 01 31
  can0  0B9   [8]  00 04 00 00 00 00 00 00
  can0  073   [8]  05 CC 00 00 00 2C 01 31
  can0  083   [8]  05 CC 00 00 00 35 18 15
  can0  2B0   [8]  6C FF 00 07 F2 00 00 00
  can0  220   [8]  FF 83 82 00 00 1D 10 88
  can0  386   [8]  00 00 00 40 00 40 00 80
  can0  2B0   [8]  6C FF 00 07 E3 00 00 00
  can0  220   [8]  FE 63 82 00 00 1C 10 96
  can0  0D8   [8]  00 00 00 00 00 00 00 00
  can0  093   [8]  05 CC 00 00 00 11 01 31
  can0  0B9   [8]  00 04 00 00 00 00 00 00
  can0  073   [8]  05 CC 00 00 00 40 AA 08
  can0  083   [8]  05 CC 00 00 00 35 18 15
  can0  2B0   [8]  6C FF 00 07 94 00 00 00
  can0  220   [8]  FD 43 82 00 00 1B 10 A4
  can0  386   [8]  00 40 00 40 00 40 00 80
  can0  2B0   [8]  6B FF 00 07 F5 00 00 00
  can0  220   [8]  FE 43 82 00 00 1A 10 B4
  can0  093   [8]  05 CC 00 00 00 11 01 31
  can0  0B9   [8]  00 04 00 00 00 00 00 00
  can0  073   [8]  05 CC 00 00 00 2C 01 31
  can0  083   [8]  05 CC 00 00 00 35 18 15
  can0  2B0   [8]  6A FF 00 07 D6 00 00 00
  can0  220   [8]  FE 63 82 00 00 19 10 C5
  can0  386   [8]  00 80 00 40 00 40 00 80
  can0  2B0   [8]  6B FF 00 07 D7 00 00 00
  can0  220   [8]  FE 63 82 00 00 18 10 D2
  can0  093   [8]  05 CC 00 00 00 11 01 31
  can0  0B9   [8]  00 04 00 00 00 00 00 00
  can0  073   [8]  05 CC 00 00 00 2C 01 31
  can0  083   [8]  05 CC 00 00 00 35 18 15
  can0  2B0   [8]  6C FF 00 07 58 00 00 00
  can0  220   [8]  FF 83 82 00 00 1B 10 E6
  can0  386   [8]  00 C0 00 40 00 40 00 80
  can0  2B0   [8]  6C FF 00 07 49 00 00 00
  can0  220   [8]  FF A3 82 00 00 1C 10 F9
  can0  093   [8]  05 CC 00 00 00 04 04 01
  can0  0B9   [8]  00 04 00 00 00 00 00 00
  can0  073   [8]  05 CC 00 00 00 2C 01 31
  can0  083   [8]  05 CC 00 00 00 09 82 0A
  can0  2B0   [8]  6C FF 00 07 7A 00 00 00
  can0  220   [8]  FF A3 82 00 00 1B 10 06
  can0  386   [8]  00 00 00 80 00 40 00 80
  can0  2B0   [8]  6C FF 00 07 6B 00 00 00
  can0  220   [8]  FE C3 82 00 00 1D 10 19
  can0  093   [8]  05 CC 00 00 00 11 01 31
  can0  073   [8]  05 CC 00 00 00 2C 01 31
  can0  0B9   [8]  00 04 00 00 00 00 00 00
  can0  083   [8]  05 CC 00 00 00 35 18 15
  can0  2B0   [8]  6B FF 00 07 6C 00 00 00
  can0  220   [8]  FC A3 82 00 00 1C 10 24
  can0  2B0   [8]  6A FF 00 07 6D 00 00 00
  can0  220   [8]  FD 83 82 00 00 1C 10 37
  can0  093   [8]  05 CC 00 00 00 00 00 00
  can0  073   [8]  05 CC 00 00 00 2C 01 31
  can0  0B9   [8]  00 04 00 00 00 00 00 00
  can0  083   [8]  05 CC 00 00 00 35 18 15
  can0  2B0   [8]  6B FF 00 07 4E 00 00 00
  can0  220   [8]  FF 83 82 00 00 1D 10 48
  can0  386   [8]  00 80 00 80 00 40 00 80
  can0  2B0   [8]  6B FF 00 07 5F 00 00 00
  can0  220   [8]  FF 83 82 00 00 1B 10 56
  can0  093   [8]  05 CC 00 00 00 11 01 31
  can0  073   [8]  05 CC 00 00 00 2C 01 31
  can0  0B9   [8]  00 04 00 00 00 00 00 00
  can0  083   [8]  05 CC 00 00 00 35 18 15
  can0  2B0   [8]  6B FF 00 07 A0 00 00 00
  can0  220   [8]  FF 63 82 00 00 18 10 65
  can0  386   [8]  00 C0 00 80 00 40 00 80
  can0  2B0   [8]  6B FF 00 07 B1 00 00 00
  can0  220   [8]  FF 63 82 00 00 18 10 75
  can0  093   [8]  05 CC 00 00 00 11 01 31
  can0  073   [8]  05 CC 00 00 00 2C 01 31
  can0  0B9   [8]  00 04 00 00 00 00 00 00
  can0  083   [8]  05 CC 00 00 00 35 18 15
  can0  2B0   [8]  6B FF 00 07 82 00 00 00
  can0  220   [8]  FE 83 82 00 00 19 10 85
  can0  386   [8]  00 00 00 C0 00 40 00 80
  can0  2B0   [8]  6C FF 00 07 E3 00 00 00
  can0  220   [8]  FE A3 82 00 00 19 10 95
  can0  093   [8]  05 CC 00 00 00 E0 0B 13
  can0  073   [8]  05 CC 00 00 00 2C 01 31
  can0  0B9   [8]  00 04 00 00 00 00 00 00
  can0  083   [8]  05 CC 00 00 00 09 82 0A
  can0  2B0   [8]  6A FF 00 07 F4 00 00 00
  can0  220   [8]  FD C3 82 00 00 18 10 A3
  can0  386   [8]  00 40 00 C0 00 40 00 80
  can0  2B0   [8]  6C FF 00 07 85 00 00 00
  can0  220   [8]  FC C3 82 00 00 1B 10 B5
  can0  093   [8]  05 CC 00 00 00 11 01 31
  can0  073   [8]  05 CC 00 00 00 04 04 01
  can0  0B9   [8]  00 04 00 00 00 00 00 00
  can0  083   [8]  05 CC 00 00 00 35 18 15
  can0  2B0   [8]  6A FF 00 07 D6 00 00 00
  can0  220   [8]  FE C3 82 00 00 1B 10 C7
  can0  386   [8]  00 80 00 C0 00 40 00 80
  can0  2B0   [8]  6A FF 00 07 C7 00 00 00
  can0  220   [8]  FF E3 82 00 00 17 10 D2
  can0  093   [8]  05 CC 00 00 00 11 01 31
  can0  0D8   [8]  00 00 00 00 00 00 00 00
  can0  073   [8]  05 CC 00 00 00 2C 01 31
  can0  0B9   [8]  00 04 00 00 00 00 00 00
  can0  083   [8]  05 CC 00 00 00 35 18 15
  can0  2B0   [8]  6B FF 00 07 28 00 00 00
  can0  220   [8]  FE 03 83 00 00 17 10 E2
  can0  386   [8]  00 C0 00 C0 00 40 00 80
  can0  2B0   [8]  6B FF 00 07 39 00 00 00
  can0  220   [8]  FF A3 82 00 00 19 10 F4
  can0  093   [8]  05 CC 00 00 00 11 01 31
  can0  073   [8]  05 CC 00 00 00 2C 01 31
  can0  0B9   [8]  00 04 00 00 00 00 00 00
  can0  083   [8]  05 CC 00 00 00 DE 0B F2
  can0  2B0   [8]  6B FF 00 07 0A 00 00 00
  can0  220   [8]  FF 43 82 00 00 19 10 04
  can0  386   [8]  00 00 00 00 00 40 00 80
  can0  2B0   [8]  6C FF 00 07 6B 00 00 00
  can0  220   [8]  FF 03 82 00 00 19 10 14
  can0  093   [8]  05 CC 00 00 00 11 01 31
  can0  073   [8]  05 CC 00 00 00 2C 01 31
  can0  083   [8]  05 CC 00 00 00 18 18 15
  can0  0B9   [8]  00 04 00 00 00 00 00 00
  can0  2B0   [8]  6C FF 00 07 1C 00 00 00
  can0  220   [8]  FD 23 82 00 00 1B 10 24
  can0  386   [8]  00 40 00 00 00 40 00 80
  can0  2B0   [8]  6C FF 00 07 0D 00 00 00
  can0  220   [8]  FB 63 82 00 00 1D 10 34
  can0  093   [8]  05 CC 00 00 00 11 01 31
  can0  073   [8]  05 CC 00 00 00 E0 0B 89
  can0  083   [8]  05 CC 00 00 00 18 18 15
  can0  0B9   [8]  00 04 00 00 00 00 00 00
  can0  2B0   [8]  6B FF 00 07 4E 00 00 00
  can0  220   [8]  FD 83 82 00 00 1D 10 46
  can0  386   [8]  00 80 00 00 00 40 00 80
  can0  2B0   [8]  6A FF 00 07 4F 00 00 00
  can0  220   [8]  FF 63 82 00 00 1D 10 58
  can0  093   [8]  05 CC 00 00 00 00 00 00
  can0  073   [8]  05 CC 00 00 00 2C 01 31
  can0  083   [8]  05 CC 00 00 00 00 00 00
  can0  0B9   [8]  00 04 00 00 00 00 00 00
  can0  2B0   [8]  6B FF 00 07 A0 00 00 00
  can0  220   [8]  FF 83 82 00 00 1D 10 68
  can0  386   [8]  00 C0 00 00 00 40 00 80
  can0  2B0   [8]  6C FF 00 07 C1 00 00 00
  can0  220   [8]  FE 63 82 00 00 1C 10 76
  can0  093   [8]  05 CC 00 00 00 11 01 31
  can0  073   [8]  05 CC 00 00 00 2C 01 31
  can0  083   [8]  05 CC 00 00 00 00 18 15
  can0  0B9   [8]  00 04 00 00 00 00 00 00
  can0  2B0   [8]  6C FF 00 07 F2 00 00 00
  can0  220   [8]  FE 83 82 00 00 1C 10 86
  can0  386   [8]  00 00 00 40 00 40 00 80
  can0  2B0   [8]  6C FF 00 07 E3 00 00 00
  can0  220   [8]  FF 83 82 00 00 1C 10 99
  can0  093   [8]  05 CC 00 00 00 11 01 31
  can0  073   [8]  05 CC 00 00 00 2C 01 31
  can0  083   [8]  05 CC 00 00 00 00 18 15
  can0  0B9   [8]  00 04 00 00 00 00 00 00
  can0  2B0   [8]  6C FF 00 07 94 00 00 00
  can0  220   [8]  FD 83 82 00 00 19 10 A2
  can0  386   [8]  00 40 00 40 00 40 00 80
  can0  2B0   [8]  6C FF 00 07 85 00 00 00
  can0  220   [8]  FC 83 82 00 00 19 10 B3
  can0  093   [8]  05 CC 00 00 00 04 04 01
  can0  073   [8]  05 CC 00 00 00 2C 01 31
  can0  083   [8]  05 CC 00 00 00 00 18 15
  can0  0B9   [8]  00 04 00 00 00 00 00 00
  can0  2B0   [8]  6B FF 00 07 C6 00 00 00
  can0  220   [8]  FF 63 82 00 00 19 10 C4
  can0  386   [8]  00 80 00 40 00 40 00 80
  can0  2B0   [8]  6B FF 00 07 D7 00 00 00
  can0  220   [8]  FF 63 82 00 00 19 10 D4
  can0  093   [8]  05 CC 00 00 00 11 01 31
  can0  073   [8]  05 CC 00 00 00 2C 01 31
  can0  083   [8]  05 CC 00 00 00 00 18 15
  can0  0B9   [8]  00 04 00 00 00 00 00 00
  can0  2B0   [8]  6C FF 00 07 58 00 00 00
  can0  220   [8]  FF A3 82 00 00 19 10 E4
  can0  386   [8]  00 C0 00 40 00 40 00 80
  can0  2B0   [8]  6C FF 00 07 49 00 00 00
  can0  220   [8]  FD 83 82 00 00 1B 10 F4
  can0  093   [8]  05 CC 00 00 00 11 01 31
  can0  073   [8]  05 CC 00 00 00 2C 01 31
  can0  083   [8]  05 CC 00 00 00 F2 00 00
  can0  0B9   [8]  00 04 00 00 00 00 00 00
  can0  2B0   [8]  6C FF 00 07 7A 00 00 00
  can0  220   [8]  FD 43 82 00 00 1C 10 07
  can0  386   [8]  00 00 00 80 00 40 00 80
  can0  2B0   [8]  6C FF 00 07 6B 00 00 00
  can0  220   [8]  FD 63 82 00 00 1A 10 15
  can0  093   [8]  05 CC 00 00 00 11 01 31
  can0  0D8   [8]  00 00 00 00 00 00 00 00
  can0  073   [8]  05 CC 00 00 00 89 00 00
  can0  083   [8]  05 CC 00 00 00 00 00 00
  can0  0B9   [8]  00 04 00 00 00 00 00 00
  can0  2B0   [8]  6C FF 00 07 1C 00 00 00
  can0  220   [8]  FE 83 82 00 00 18 10 22
  can0  386   [8]  00 40 00 80 00 40 00 80
  can0  2B0   [8]  6C FF 00 07 0D 00 00 00
  can0  220   [8]  FF 43 82 00 00 16 10 33
  can0  093   [8]  05 CC 00 00 00 11 01 31
  can0  073   [8]  05 CC 00 00 00 2C 01 31
  can0  083   [8]  05 CC 00 00 00 10 18 15
  can0  0B9   [8]  00 04 00 00 00 00 00 00
  can0  2B0   [8]  6B FF 00 07 4E 00 00 00
  can0  220   [8]  FF 23 82 00 00 15 10 40
  can0  386   [8]  00 80 00 80 00 40 00 80
  can0  2B0   [8]  6C FF 00 07 2F 00 00 00
  can0  220   [8]  FF 43 82 00 00 18 10 55
  can0  093   [8]  05 CC 00 00 00 A5 08 9F
  can0  073   [8]  05 CC 00 00 00 2C 01 31
  can0  083   [8]  05 CC 00 00 00 10 18 15
  can0  0B9   [8]  00 04 00 00 00 00 00 00
  can0  2B0   [8]  6C FF 00 07 D0 00 00 00
  can0  220   [8]  FF 43 82 00 00 18 10 65
  can0  386   [8]  00 C0 00 80 00 40 00 80
  can0  2B0   [8]  6C FF 00 07 C1 00 00 00
  can0  220   [8]  FF 43 82 00 00 19 10 74
  can0  093   [8]  05 CC 00 00 00 11 01 31
  can0  073   [8]  05 CC 00 00 00 2C 01 31
  can0  083   [8]  05 CC 00 00 00 10 18 15
  can0  0B9   [8]  00 04 00 00 00 00 00 00
  can0  2B0   [8]  6C FF 00 07 F2 00 00 00
  can0  220   [8]  FF 63 82 00 00 1A 10 87
  can0  386   [8]  00 00 00 C0 00 40 00 80
  can0  2B0   [8]  6B FF 00 07 93 00 00 00
  can0  220   [8]  FF 63 82 00 00 19 10 94
  can0  093   [8]  05 CC 00 00 00 11 01 31
  can0  073   [8]  05 CC 00 00 00 2C 01 31
  can0  083   [8]  05 CC 00 00 00 10 18 15
  can0  0B9   [8]  00 04 00 00 00 00 00 00
  can0  2B0   [8]  6A FF 00 07 F4 00 00 00
  can0  220   [8]  FF A3 82 00 00 17 10 A2
  can0  386   [8]  00 40 00 C0 00 40 00 80
  can0  2B0   [8]  6B FF 00 07 F5 00 00 00
  can0  220   [8]  FF 83 82 00 00 19 10 B4
  can0  093   [8]  05 CC 00 00 00 04 04 01
  can0  073   [8]  05 CC 00 00 00 2C 01 31
  can0  083   [8]  05 CC 00 00 00 00 00 00
  can0  0B9   [8]  00 04 00 00 00 00 00 00
  can0  2B0   [8]  6B FF 00 07 C6 00 00 00
  can0  220   [8]  FF 83 82 00 00 1B 10 C6
  can0  386   [8]  00 80 00 C0 00 40 00 80
  can0  2B0   [8]  6B FF 00 07 D7 00 00 00
  can0  220   [8]  FF A3 82 00 00 16 10 D3
  can0  093   [8]  05 CC 00 00 00 11 01 31
  can0  073   [8]  05 CC 00 00 00 2C 01 31
  can0  083   [8]  05 CC 00 00 00 10 18 15
  can0  0B9   [8]  00 04 00 00 00 00 00 00
  can0  2B0   [8]  6B FF 00 07 28 00 00 00
  can0  220   [8]  FF 83 82 00 00 14 10 E1
  can0  386   [8]  00 C0 00 C0 00 40 00 80
  can0  2B0   [8]  6C FF 00 07 49 00 00 00
  can0  220   [8]  FF 83 82 00 00 19 10 F4
  can0  093   [8]  05 CC 00 00 00 00 00 00
  can0  073   [8]  05 CC 00 00 00 2C 01 31
  can0  083   [8]  05 CC 00 00 00 10 18 15
  can0  0B9   [8]  00 04 00 00 00 00 00 00
  can0  2B0   [8]  6C FF 00 07 7A 00 00 00
  can0  220   [8]  FF 43 82 00 00 1B 10 06
  can0  386   [8]  00 00 00 00 00 40 00 80
  can0  2B0   [8]  6C FF 00 07 6B 00 00 00
  can0  220   [8]  FF 03 82 00 00 1A 10 17
  can0  093   [8]  05 CC 00 00 00 11 01 31
  can0  073   [8]  05 CC 00 00 00 2C 01 31
  can0  083   [8]  05 CC 00 00 00 10 18 15
  can0  0B9   [8]  00 04 00 00 00 00 00 00
  can0  2B0   [8]  6C FF 00 07 1C 00 00 00
  can0  220   [8]  FF 83 82 00 00 19 10 24
  can0  386   [8]  00 40 00 00 00 40 00 80
  can0  2B0   [8]  6B FF 00 07 7D 00 00 00
  can0  220   [8]  FE A3 82 00 00 1A 10 34
  can0  093   [8]  05 CC 00 00 00 11 01 31
  can0  073   [8]  05 CC 00 00 00 2C 01 31
  can0  083   [8]  05 CC 00 00 00 10 18 15
  can0  0B9   [8]  00 04 00 00 00 00 00 00
  can0  2B0   [8]  6B FF 00 07 4E 00 00 00
  can0  220   [8]  FF 63 82 00 00 1D 10 48
  can0  386   [8]  00 80 00 00 00 40 00 80
  can0  2B0   [8]  6C FF 00 07 2F 00 00 00
  can0  220   [8]  FF 23 82 00 00 1D 10 58
  can0  093   [8]  05 CC 00 00 00 31 08 04
  can0  073   [8]  05 CC 00 00 00 2C 01 31
  can0  0D8   [8]  00 00 00 00 00 00 00 00
  can0  083   [8]  05 CC 00 00 00 00 00 00
  can0  0B9   [8]  00 04 00 00 00 00 00 00
  can0  2B0   [8]  6C FF 00 07 D0 00 00 00
  can0  220   [8]  FE 23 82 00 00 1A 10 64
  can0  386   [8]  00 C0 00 00 00 40 00 80
  can0  2B0   [8]  6C FF 00 07 C1 00 00 00
  can0  220   [8]  FC 83 82 00 00 1B 10 75
  can0  093   [8]  05 CC 00 00 00 11 01 31
  can0  073   [8]  05 CC 00 00 00 00 00 00
  can0  083   [8]  05 CC 00 00 00 10 18 15
  can0  0B9   [8]  00 04 00 00 00 00 00 00
  can0  2B0   [8]  6C FF 00 07 F2 00 00 00
  can0  220   [8]  FD 83 82 00 00 1A 10 85
  can0  386   [8]  00 00 00 40 00 40 00 80
  can0  2B0   [8]  6B FF 00 07 93 00 00 00
  can0  220   [8]  FE 43 82 00 00 16 10 90
  can0  093   [8]  05 CC 00 00 00 11 01 31
  can0  073   [8]  05 CC 00 00 00 2C 01 31
  can0  083   [8]  05 CC 00 00 00 10 18 15
  can0  0B9   [8]  00 04 00 00 00 00 00 00
  can0  2B0   [8]  6A FF 00 07 F4 00 00 00
  can0  220   [8]  FD 63 82 00 00 15 10 AE
  can0  386   [8]  00 40 00 40 00 40 00 80
  can0  2B0   [8]  6B FF 00 07 F5 00 00 00
  can0  220   [8]  FD A3 82 00 00 18 10 B3
  can0  093   [8]  05 CC 00 00 00 A5 08 9F
  can0  073   [8]  05 CC 00 00 00 2C 01 31
  can0  083   [8]  05 CC 00 00 00 10 18 15
  can0  0B9   [8]  00 04 00 00 00 00 00 00
  can0  2B0   [8]  6C FF 00 07 B6 00 00 00
  can0  220   [8]  FD C3 82 00 00 19 10 C2
  can0  386   [8]  00 80 00 40 00 40 00 80
  can0  2B0   [8]  6C FF 00 07 A7 00 00 00
  can0  220   [8]  FE 63 82 00 00 1B 10 D7
  can0  093   [8]  05 CC 00 00 00 11 01 31
  can0  073   [8]  05 CC 00 00 00 00 00 00
  can0  083   [8]  05 CC 00 00 00 10 18 15
  can0  0B9   [8]  00 04 00 00 00 00 00 00
  can0  2B0   [8]  6C FF 00 07 58 00 00 00
  can0  220   [8]  FD 43 82 00 00 1B 10 E4
  can0  2B0   [8]  6C FF 00 07 49 00 00 00
  can0  220   [8]  FB 43 82 00 00 1B 10 F2
  can0  093   [8]  05 CC 00 00 00 11 01 31
  can0  073   [8]  05 CC 00 00 00 2C 01 31
  can0  083   [8]  05 CC 00 00 00 35 08 03
  can0  0B9   [8]  00 04 00 00 00 00 00 00
  can0  2B0   [8]  6C FF 00 07 7A 00 00 00
  can0  220   [8]  F9 63 82 00 00 1A 10 01
  can0  386   [8]  00 00 00 80 00 40 00 80
  can0  2B0   [8]  6C FF 00 07 6B 00 00 00
  can0  220   [8]  FB 63 82 00 00 1A 10 13
  can0  093   [8]  05 CC 00 00 00 82 A5 08
  can0  073   [8]  05 CC 00 00 00 2C 01 31
  can0  083   [8]  05 CC 00 00 00 CC 18 15
  can0  0B9   [8]  00 04 00 00 00 00 00 00
  can0  2B0   [8]  6B FF 00 07 6C 00 00 00
  can0  220   [8]  FC 63 82 00 00 1A 10 22
  can0  386   [8]  00 40 00 80 00 40 00 80
  can0  2B0   [8]  6A FF 00 07 6D 00 00 00
  can0  220   [8]  FF 83 82 00 00 18 10 35
  can0  093   [8]  05 CC 00 00 00 11 01 31
  can0  073   [8]  05 CC 00 00 00 2C 01 31
  can0  083   [8]  05 CC 00 00 00 CC 18 15
  can0  2B0   [8]  6B FF 00 07 4E 00 00 00
  can0  0B9   [8]  00 04 00 00 00 00 00 00
  can0  220   [8]  FF 63 82 00 00 18 10 45
  can0  386   [8]  00 80 00 80 00 40 00 80
  can0  2B0   [8]  6C FF 00 07 2F 00 00 00
  can0  220   [8]  FF 23 82 00 00 1A 10 57
  can0  093   [8]  05 CC 00 00 00 11 01 31
  can0  073   [8]  05 CC 00 00 00 04 04 01
  can0  083   [8]  05 CC 00 00 00 CC 18 15
  can0  2B0   [8]  6C FF 00 07 D0 00 00 00
  can0  0B9   [8]  00 04 00 00 00 00 00 00
  can0  220   [8]  FF 03 82 00 00 1A 10 67
  can0  386   [8]  00 C0 00 80 00 40 00 80
  can0  2B0   [8]  6C FF 00 07 C1 00 00 00
  can0  220   [8]  FF 63 82 00 00 19 10 74
  can0  093   [8]  05 CC 00 00 00 11 01 31
  can0  073   [8]  05 CC 00 00 00 2C 01 31
  can0  083   [8]  05 CC 00 00 00 CC 18 15
  can0  2B0   [8]  6C FF 00 07 F2 00 00 00
  can0  220   [8]  FE 63 82 00 00 19 10 85
  can0  0B9   [8]  00 04 00 00 00 00 00 00
  can0  386   [8]  00 00 00 C0 00 40 00 80
  can0  2B0   [8]  6A FF 00 07 83 00 00 00
  can0  220   [8]  FE 43 82 00 00 1B 10 97
  can0  093   [8]  05 CC 00 00 00 13 00 00
  can0  073   [8]  05 CC 00 00 00 2C 01 31
  can0  0D8   [8]  00 00 00 00 00 00 00 00
  can0  083   [8]  05 CC 00 00 00 35 08 03
  can0  2B0   [8]  6C FF 00 07 94 00 00 00
  can0  220   [8]  FE 23 82 00 00 1C 10 A6
  can0  386   [8]  00 40 00 C0 00 40 00 80
  can0  0B9   [8]  00 04 00 00 00 00 00 00
  can0  2B0   [8]  6C FF 00 07 85 00 00 00
  can0  220   [8]  FF 23 82 00 00 19 10 B4
  can0  093   [8]  05 CC 00 00 00 11 01 31
  can0  073   [8]  05 CC 00 00 00 2C 01 31
  can0  083   [8]  05 CC 00 00 00 CC 18 15
  can0  2B0   [8]  6C FF 00 07 B6 00 00 00
  can0  220   [8]  FF 63 82 00 00 18 10 C5
  can0  386   [8]  00 80 00 C0 00 40 00 80
  can0  0B9   [8]  00 04 00 00 00 00 00 00
  can0  2B0   [8]  6C FF 00 07 A7 00 00 00
  can0  220   [8]  FF 83 82 00 00 18 10 D5
  can0  093   [8]  05 CC 00 00 00 11 01 31
  can0  073   [8]  05 CC 00 00 00 04 04 01
  can0  083   [8]  05 CC 00 00 00 CC 18 15
  can0  2B0   [8]  6A FF 00 07 38 00 00 00
  can0  220   [8]  FF 83 82 00 00 1A 10 E7
  can0  386   [8]  00 C0 00 C0 00 40 00 80
  can0  0B9   [8]  00 04 00 00 00 00 00 00
  can0  2B0   [8]  6C FF 00 07 49 00 00 00
  can0  220   [8]  FF 83 82 00 00 1B 10 F6
  can0  093   [8]  05 CC 00 00 00 01 31 08
  can0  073   [8]  05 CC 00 00 00 2C 01 31
  can0  083   [8]  05 CC 00 00 00 82 0A DE
  can0  2B0   [8]  6C FF 00 07 7A 00 00 00
  can0  220   [8]  FF 63 82 00 00 1C 10 09
  can0  386   [8]  00 00 00 00 00 40 00 80
  can0  0B9   [8]  00 04 00 00 00 00 00 00
  can0  2B0   [8]  6B FF 00 07 1B 00 00 00
  can0  220   [8]  FF 63 82 00 00 1E 10 1B
  can0  093   [8]  05 CC 00 00 00 11 01 31
  can0  073   [8]  05 CC 00 00 00 2C 01 31
  can0  083   [8]  05 CC 00 00 00 01 18 15
  can0  2B0   [8]  6B FF 00 07 6C 00 00 00
  can0  220   [8]  FF 83 82 00 00 1C 10 29
  can0  386   [8]  00 40 00 00 00 40 00 80
  can0  0B9   [8]  00 04 00 00 00 00 00 00
  can0  2B0   [8]  6C FF 00 07 0D 00 00 00
  can0  220   [8]  FF 63 82 00 00 19 10 34
  can0  093   [8]  05 CC 00 00 00 11 01 31
  can0  073   [8]  05 CC 00 00 00 0A E0 0B
  can0  083   [8]  05 CC 00 00 00 01 18 15
  can0  2B0   [8]  6B FF 00 07 4E 00 00 00
  can0  220   [8]  FD 63 82 00 00 19 10 42
  can0  386   [8]  00 80 00 00 00 40 00 80
  can0  0B9   [8]  00 04 00 00 00 00 00 00
  can0  2B0   [8]  6A FF 00 07 4F 00 00 00
  can0  220   [8]  FD 83 82 00 00 19 10 52
  can0  093   [8]  05 CC 00 00 00 08 9F 0A
  can0  073   [8]  05 CC 00 00 00 2C 01 31
  can0  083   [8]  05 CC 00 00 00 01 18 15
  can0  2B0   [8]  6C FF 00 07 D0 00 00 00
  can0  220   [8]  FD A3 82 00 00 16 10 61
  can0  386   [8]  00 C0 00 00 00 40 00 80
  can0  0B9   [8]  00 04 00 00 00 00 00 00
  can0  2B0   [8]  6C FF 00 07 C1 00 00 00
  can0  220   [8]  FE C3 82 00 00 16 10 70
  can0  093   [8]  05 CC 00 00 00 11 01 31
  can0  073   [8]  05 CC 00 00 00 2C 01 31
  can0  083   [8]  05 CC 00 00 00 01 18 15
  can0  2B0   [8]  6C FF 00 07 F2 00 00 00
  can0  220   [8]  FF A3 82 00 00 17 10 82
  can0  386   [8]  00 00 00 40 00 40 00 80
  can0  0B9   [8]  00 04 00 00 00 00 00 00
  can0  2B0   [8]  6A FF 00 07 83 00 00 00
  can0  220   [8]  FE 83 82 00 00 18 10 92
  can0  093   [8]  05 CC 00 00 00 11 01 31
  can0  073   [8]  05 CC 00 00 00 2C 01 31
  can0  083   [8]  05 CC 00 00 00 0B F2 00
  can0  2B0   [8]  6C FF 00 07 94 00 00 00
  can0  220   [8]  FE A3 82 00 00 15 10 A1
  can0  386   [8]  00 40 00 40 00 40 00 80
  can0  0B9   [8]  00 04 00 00 00 00 00 00
  can0  2B0   [8]  6C FF 00 07 85 00 00 00
  can0  220   [8]  FF A3 82 00 00 16 10 B3
  can0  093   [8]  05 CC 00 00 00 A5 08 9F
  can0  073   [8]  05 CC 00 00 00 2C 01 31
  can0  083   [8]  05 CC 00 00 00 15 18 15
  can0  2B0   [8]  6B FF 00 07 C6 00 00 00
  can0  220   [8]  FF 63 82 00 00 17 10 C2
  can0  0B9   [8]  00 04 00 00 00 00 00 00
  can0  2B0   [8]  6B FF 00 07 D7 00 00 00
  can0  220   [8]  FE 23 82 00 00 17 10 D3
  can0  093   [8]  05 CC 00 00 00 11 01 31
  can0  073   [8]  05 CC 00 00 00 2C 01 31
  can0  083   [8]  05 CC 00 00 00 15 18 15
  can0  0D8   [8]  00 00 00 00 00 00 00 00
  can0  2B0   [8]  6C FF 00 07 58 00 00 00
  can0  220   [8]  FD 43 82 00 00 18 10 E3
  can0  386   [8]  00 C0 00 40 00 40 00 80
  can0  0B9   [8]  00 04 00 00 00 00 00 00
  can0  2B0   [8]  6C FF 00 07 49 00 00 00
  can0  220   [8]  FE 83 82 00 00 1C 10 F6
  can0  093   [8]  05 CC 00 00 00 11 01 31
  can0  073   [8]  05 CC 00 00 00 2C 01 31
  can0  083   [8]  05 CC 00 00 00 15 18 15
  can0  2B0   [8]  6A FF 00 07 1A 00 00 00
  can0  220   [8]  FE 63 82 00 00 1E 10 08
  can0  386   [8]  00 00 00 80 00 40 00 80
  can0  0B9   [8]  00 04 00 00 00 00 00 00
  can0  2B0   [8]  6C FF 00 07 6B 00 00 00
  can0  220   [8]  FE 63 82 00 00 1A 10 14
  can0  093   [8]  05 CC 00 00 00 13 00 00
  can0  073   [8]  05 CC 00 00 00 40 AA 08
  can0  083   [8]  05 CC 00 00 00 15 18 15
  can0  2B0   [8]  6C FF 00 07 1C 00 00 00
  can0  220   [8]  FE 43 82 00 00 1A 10 24
  can0  386   [8]  00 40 00 80 00 40 00 80
  can0  0B9   [8]  00 04 00 00 00 00 00 00
  can0  2B0   [8]  6A FF 00 07 6D 00 00 00
  can0  220   [8]  FE 43 82 00 00 1B 10 37
  can0  093   [8]  05 CC 00 00 00 11 01 31
  can0  073   [8]  05 CC 00 00 00 2C 01 31
  can0  083   [8]  05 CC 00 00 00 DE 0B F2
  can0  2B0   [8]  6C FF 00 07 3E 00 00 00
  can0  220   [8]  FE A3 82 00 00 19 10 45
  can0  386   [8]  00 80 00 80 00 40 00 80
  can0  0B9   [8]  00 04 00 00 00 00 00 00
  can0  2B0   [8]  6C FF 00 07 2F 00 00 00
  can0  220   [8]  FE C3 82 00 00 1B 10 57
  can0  093   [8]  05 CC 00 00 00 01 31 08
  can0  073   [8]  05 CC 00 00 00 2C 01 31
  can0  083   [8]  05 CC 00 00 00 00 00 00
  can0  2B0   [8]  6B FF 00 07 A0 00 00 00
  can0  220   [8]  FF C3 82 00 00 1D 10 68
  can0  386   [8]  00 C0 00 80 00 40 00 80
  can0  0B9   [8]  00 04 00 00 00 00 00 00
  can0  2B0   [8]  6A FF 00 07 A1 00 00 00
  can0  220   [8]  FF C3 82 00 00 1A 10 77
  can0  093   [8]  05 CC 00 00 00 11 01 31
  can0  073   [8]  05 CC 00 00 00 2C 01 31
  can0  083   [8]  05 CC 00 00 00 00 18 15
  can0  2B0   [8]  6B FF 00 07 82 00 00 00
  can0  220   [8]  FF E3 82 00 00 19 10 84
  can0  386   [8]  00 00 00 C0 00 40 00 80
  can0  0B9   [8]  00 04 00 00 00 00 00 00
  can0  2B0   [8]  6C FF 00 07 E3 00 00 00
  can0  220   [8]  FF A3 82 00 00 17 10 92
